Time Stamp,ID,Extended,Dir,Bus,LEN,D1,D2,D3,D4,D5,D6,D7,D8
39089457,00000200,false,Rx,4,3,02,00,00,00,00,00,00,00,
39185962,00000460,false,Rx,4,6,8B,11,0B,10,0B,19,00,00,
39186892,00000460,false,Rx,4,8,8B,0E,0B,0F,0B,17,0B,18,
39187814,00000460,false,Rx,4,8,8B,08,0B,09,0B,14,0B,13,
39188816,000007E0,false,Rx,4,8,00,00,00,00,00,00,10,00,
39189730,00000470,false,Rx,4,8,80,01,0B,19,0B,1B,0B,19,
39190764,00000460,false,Rx,4,8,8B,11,0B,10,0B,1A,0B,1A,
39191686,00000470,false,Rx,4,8,8B,12,0B,12,0B,12,0B,12,
39192586,00000470,false,Rx,4,8,8B,19,0B,1A,0B,1B,0B,1C,
39193570,000007E0,false,Rx,4,8,0D,0A,00,00,00,00,10,17,
39194573,000007E0,false,Rx,4,8,00,00,00,00,00,00,10,00,
39195355,00000470,false,Rx,4,6,8B,1A,0B,19,0B,1A,00,00,
39196447,000007E0,false,Rx,4,8,0D,0C,00,00,00,00,10,19,
39202668,00000463,false,Rx,4,8,8B,12,0B,14,0B,1D,0B,1D,
39203587,00000473,false,Rx,4,8,8B,1D,0B,1F,0B,1F,0B,1D,
39204583,000007E3,false,Rx,4,8,00,00,00,00,00,00,10,03,
39242248,00000468,false,Rx,4,8,8B,0A,0B,0B,0B,13,0B,13,
39243157,00000478,false,Rx,4,8,8B,13,0B,12,0B,13,0B,12,
39244150,000007E8,false,Rx,4,8,0C,EF,00,00,00,00,10,03,
39252924,0000046A,false,Rx,4,8,8B,10,0B,0E,0B,1B,0B,19,
39253833,0000047A,false,Rx,4,8,8B,1A,0B,1A,0B,19,0B,1A,
39254816,000007EA,false,Rx,4,8,00,00,00,00,00,00,10,0A,
39261712,0000046C,false,Rx,4,6,8B,13,0B,11,0B,1C,00,00,
39262519,0000047C,false,Rx,4,6,8B,1E,0B,1F,0B,1D,00,00,
39263532,000007EC,false,Rx,4,8,0D,0F,00,00,00,00,10,28,
39266310,0000046D,false,Rx,4,6,8B,0E,0B,0E,0B,18,00,00,
39267077,0000047D,false,Rx,4,6,8B,17,0B,17,0B,17,00,00,
39268101,000007ED,false,Rx,4,8,0D,0A,00,00,00,00,10,24,
39271297,0000046E,false,Rx,4,6,8B,1B,0B,19,0B,28,00,00,
39272094,0000047E,false,Rx,4,6,8B,2A,0B,27,0B,27,00,00,
39273118,000007EE,false,Rx,4,8,00,01,00,00,00,00,10,0F,
1014995,00000200,false,Rx,4,3,02,00,00,00,00,00,00,00,
1111489,00000460,false,Rx,4,6,8B,11,0B,10,0B,19,00,00,
1112427,00000460,false,Rx,4,8,8B,0E,0B,10,0B,18,0B,18,
1113342,00000460,false,Rx,4,8,8B,09,0B,08,0B,13,0B,13,
1114344,000007E0,false,Rx,4,8,00,00,00,00,00,00,10,00,
1115277,00000470,false,Rx,4,8,80,02,0B,1A,0B,1B,0B,19,
1116299,00000470,false,Rx,4,8,8B,12,0B,13,0B,12,0B,12,
1117284,000007E0,false,Rx,4,8,0D,0B,00,00,00,00,10,18,
1118255,000007E0,false,Rx,4,8,0D,0C,00,00,00,00,10,19,
1119037,00000470,false,Rx,4,6,8B,1A,0B,19,0B,1B,00,00,
1128183,00000463,false,Rx,4,8,8B,13,0B,14,0B,1D,0B,1E,
1129112,00000473,false,Rx,4,8,8B,1F,0B,1F,0B,1C,0B,1E,
1130106,000007E3,false,Rx,4,8,00,00,00,00,00,00,10,03,
1133211,00000460,false,Rx,4,8,8B,11,0B,11,0B,1C,0B,1D,
1134111,00000470,false,Rx,4,8,8B,1C,0B,1B,0B,1B,0B,1B,
1135125,000007E0,false,Rx,4,8,00,00,00,00,00,00,10,00,
1167775,00000468,false,Rx,4,8,8B,0A,0B,0B,0B,13,0B,13,
1168674,00000478,false,Rx,4,8,8B,13,0B,11,0B,13,0B,13,
1169668,000007E8,false,Rx,4,8,0C,EF,00,00,00,00,10,03,
1178451,0000046A,false,Rx,4,8,8B,10,0B,0F,0B,1A,0B,19,
1179351,0000047A,false,Rx,4,8,8B,1B,0B,17,0B,1A,0B,18,
1180325,000007EA,false,Rx,4,8,00,00,00,00,00,00,10,0A,
1187233,0000046C,false,Rx,4,6,8B,13,0B,11,0B,1C,00,00,
1188030,0000047C,false,Rx,4,6,8B,1D,0B,1E,0B,1C,00,00,
1189054,000007EC,false,Rx,4,8,0D,0F,00,00,00,00,10,28,
1191822,0000046D,false,Rx,4,6,8B,0E,0B,0D,0B,17,00,00,
1192597,0000047D,false,Rx,4,6,8B,17,0B,18,0B,16,00,00,
1193611,000007ED,false,Rx,4,8,0D,0A,00,00,00,00,10,24,
1196807,0000046E,false,Rx,4,6,8B,1B,0B,19,0B,28,00,00,
1197603,0000047E,false,Rx,4,6,8B,29,0B,28,0B,26,00,00,
1198628,000007EE,false,Rx,4,8,00,01,00,00,00,00,10,0F,
2017579,00000200,false,Rx,4,3,02,00,00,00,00,00,00,00,
2114098,00000460,false,Rx,4,6,8B,11,0B,10,0B,18,00,00,
2115026,00000460,false,Rx,4,8,8B,0E,0B,0F,0B,18,0B,18,
2116341,00000460,false,Rx,4,8,8B,11,0B,11,0B,1C,0B,1C,
2117254,00000460,false,Rx,4,8,8B,08,0B,09,0B,12,0B,12,
2118165,00000470,false,Rx,4,8,8B,1B,0B,1B,0B,1B,0B,1D,
2119068,00000470,false,Rx,4,8,8B,12,0B,13,0B,10,0B,12,
2120082,000007E0,false,Rx,4,8,00,00,00,00,00,00,10,00,
2121006,00000470,false,Rx,4,8,80,02,0B,1A,0B,1B,0B,19,
2121980,000007E0,false,Rx,4,8,0D,0C,00,00,00,00,10,19,
2123073,000007E0,false,Rx,4,8,0D,0A,00,00,00,00,10,17,
2123915,00000470,false,Rx,4,6,8B,1A,0B,19,0B,1A,00,00,
2130790,00000463,false,Rx,4,8,8B,11,0B,12,0B,1E,0B,1F,
2131699,00000473,false,Rx,4,8,8B,1C,0B,1D,0B,1F,0B,1E,
2132694,000007E3,false,Rx,4,8,00,00,00,00,00,00,10,03,
2170370,00000468,false,Rx,4,8,8B,0A,0B,0B,0B,13,0B,12,
2171289,00000478,false,Rx,4,8,8B,14,0B,10,0B,14,0B,12,
2172282,000007E8,false,Rx,4,8,0C,EF,00,00,00,00,10,03,
2181035,0000046A,false,Rx,4,8,8B,11,0B,10,0B,1A,0B,1A,
2181944,0000047A,false,Rx,4,8,8B,1B,0B,1A,0B,19,0B,19,
2182928,000007EA,false,Rx,4,8,00,00,00,00,00,00,10,0A,
2189825,0000046C,false,Rx,4,6,8B,13,0B,11,0B,1C,00,00,
2190631,0000047C,false,Rx,4,6,8B,1E,0B,1E,0B,1C,00,00,
2191645,000007EC,false,Rx,4,8,0D,0F,00,00,00,00,10,28,
2194402,0000046D,false,Rx,4,6,8B,0E,0B,0D,0B,18,00,00,
2195189,0000047D,false,Rx,4,6,8B,17,0B,17,0B,16,00,00,
2196194,000007ED,false,Rx,4,8,0D,0A,00,00,00,00,10,24,
2199389,0000046E,false,Rx,4,6,8B,1B,0B,19,0B,29,00,00,
2200166,0000047E,false,Rx,4,6,8B,29,0B,27,0B,26,00,00,
2201210,000007EE,false,Rx,4,8,00,01,00,00,00,00,10,0F,
3020759,00000200,false,Rx,4,3,02,00,00,00,00,00,00,00,
3117264,00000460,false,Rx,4,6,8B,11,0B,10,0B,19,00,00,
3118172,00000460,false,Rx,4,8,8B,0E,0B,0F,0B,17,0B,19,
3119496,00000460,false,Rx,4,8,8B,12,0B,11,0B,1B,0B,1B,
3120419,00000460,false,Rx,4,8,8B,08,0B,0A,0B,12,0B,12,
3121312,00000470,false,Rx,4,8,8B,1B,0B,1B,0B,1B,0B,1A,
3122236,00000470,false,Rx,4,8,8B,12,0B,12,0B,12,0B,12,
3123240,000007E0,false,Rx,4,8,00,00,00,00,00,00,10,00,
3124172,00000470,false,Rx,4,8,80,02,0B,1A,0B,1B,0B,19,
3125145,000007E0,false,Rx,4,8,0D,0C,00,00,00,00,10,19,
3126249,000007E0,false,Rx,4,8,0D,0A,00,00,00,00,10,17,
3127081,00000470,false,Rx,4,6,8B,1A,0B,19,0B,1A,00,00,
3133956,00000463,false,Rx,4,8,8B,13,0B,13,0B,1E,0B,1E,
3134865,00000473,false,Rx,4,8,8B,1C,0B,20,0B,1D,0B,1E,
3135848,000007E3,false,Rx,4,8,00,00,00,00,00,00,10,03,
3173552,00000468,false,Rx,4,8,8B,0A,0B,0B,0B,13,0B,12,
3174461,00000478,false,Rx,4,8,8B,13,0B,10,0B,13,0B,13,
3175446,000007E8,false,Rx,4,8,0C,EF,00,00,00,00,10,03,
3184198,0000046A,false,Rx,4,8,8B,0F,0B,11,0B,18,0B,1B,
3185097,0000047A,false,Rx,4,8,8B,17,0B,1C,0B,17,0B,1B,
3186080,000007EA,false,Rx,4,8,00,00,00,00,00,00,10,0A,
3193029,0000046C,false,Rx,4,6,8B,13,0B,11,0B,1D,00,00,
3193816,0000047C,false,Rx,4,6,8B,1D,0B,1E,0B,1C,00,00,
3194850,000007EC,false,Rx,4,8,0D,0F,00,00,00,00,10,28,
3197575,0000046D,false,Rx,4,6,8B,0F,0B,0D,0B,17,00,00,
3198342,0000047D,false,Rx,4,6,8B,17,0B,17,0B,17,00,00,
3199377,000007ED,false,Rx,4,8,0D,09,00,00,00,00,10,23,
3202582,0000046E,false,Rx,4,6,8B,1C,0B,18,0B,28,00,00,
3203379,0000047E,false,Rx,4,6,8B,2A,0B,27,0B,26,00,00,
3204382,000007EE,false,Rx,4,8,00,01,00,00,00,00,10,0F,
4021366,00000200,false,Rx,4,3,02,00,00,00,00,00,00,00,
4117875,00000460,false,Rx,4,6,8B,10,0B,10,0B,19,00,00,
4118783,00000460,false,Rx,4,8,8B,0E,0B,0F,0B,17,0B,18,
4120107,00000460,false,Rx,4,8,8B,12,0B,11,0B,1A,0B,1B,
4121030,00000470,false,Rx,4,8,8B,1A,0B,1B,0B,1C,0B,1C,
4122032,000007E0,false,Rx,4,8,00,00,00,00,00,00,10,00,
4122966,00000470,false,Rx,4,8,80,02,0B,1A,0B,1B,0B,19,
4124060,000007E0,false,Rx,4,8,0D,0A,00,00,00,00,10,17,
4124912,00000470,false,Rx,4,6,8B,1A,0B,18,0B,1A,00,00,
4134564,00000463,false,Rx,4,8,8B,11,0B,13,0B,1E,0B,1F,
4135483,00000473,false,Rx,4,8,8B,1C,0B,1D,0B,1E,0B,1F,
4136477,000007E3,false,Rx,4,8,00,00,00,00,00,00,10,03,
4138970,00000460,false,Rx,4,8,8B,08,0B,09,0B,12,0B,13,
4139879,00000470,false,Rx,4,8,8B,13,0B,12,0B,12,0B,12,
4140853,000007E0,false,Rx,4,8,0D,0C,00,00,00,00,10,19,
4174164,00000468,false,Rx,4,8,8B,0A,0B,0B,0B,13,0B,13,
4175063,00000478,false,Rx,4,8,8B,13,0B,11,0B,13,0B,12,
4176048,000007E8,false,Rx,4,8,0C,EF,00,00,00,00,10,03,
4184821,0000046A,false,Rx,4,8,8B,10,0B,10,0B,18,0B,1B,
4185740,0000047A,false,Rx,4,8,8B,19,0B,1A,0B,19,0B,18,
4186724,000007EA,false,Rx,4,8,00,00,00,00,00,00,10,0A,
4193640,0000046C,false,Rx,4,6,8B,12,0B,11,0B,1D,00,00,
4194427,0000047C,false,Rx,4,6,8B,1D,0B,1E,0B,1C,00,00,
4195462,000007EC,false,Rx,4,8,0D,0F,00,00,00,00,10,28,
4198188,0000046D,false,Rx,4,6,8B,0E,0B,0E,0B,18,00,00,
4198986,0000047D,false,Rx,4,6,8B,16,0B,17,0B,16,00,00,
4199980,000007ED,false,Rx,4,8,0D,09,00,00,00,00,10,23,
4203185,0000046E,false,Rx,4,6,8B,1C,0B,19,0B,28,00,00,
4203973,0000047E,false,Rx,4,6,8B,2A,0B,27,0B,26,00,00,
4205006,000007EE,false,Rx,4,8,00,02,00,00,00,00,10,10,
5022523,00000200,false,Rx,4,3,02,00,00,00,00,00,00,00,
5119029,00000460,false,Rx,4,6,8B,11,0B,10,0B,19,00,00,
5119938,00000460,false,Rx,4,8,8B,0E,0B,0F,0B,17,0B,18,
5126979,00000460,false,Rx,4,8,8B,08,0B,08,0B,12,0B,12,
5127888,00000460,false,Rx,4,8,8B,10,0B,0F,0B,1B,0B,1C,
5128801,00000470,false,Rx,4,8,8B,12,0B,13,0B,12,0B,11,
5129711,00000470,false,Rx,4,8,8B,1C,0B,1B,0B,19,0B,19,
5131471,000007E0,false,Rx,4,8,00,00,00,00,00,00,10,00,
5132404,00000470,false,Rx,4,8,80,02,0B,1A,0B,1C,0B,19,
5133406,000007E0,false,Rx,4,8,00,00,00,00,00,00,10,00,
5134512,000007E0,false,Rx,4,8,0D,0B,00,00,00,00,10,18,
5135738,00000463,false,Rx,4,8,8B,11,0B,13,0B,1F,0B,1F,
5136670,00000473,false,Rx,4,8,8B,1C,0B,1E,0B,1F,0B,1F,
5137663,000007E3,false,Rx,4,8,00,00,00,00,00,00,10,03,
5149117,000007E0,false,Rx,4,8,0D,0A,00,00,00,00,10,17,
5149895,00000470,false,Rx,4,6,8B,1A,0B,19,0B,1A,00,00,
5175324,00000468,false,Rx,4,8,8B,0A,0B,0B,0B,13,0B,13,
5176244,00000478,false,Rx,4,8,8B,13,0B,12,0B,14,0B,13,
5177228,000007E8,false,Rx,4,8,0C,EF,00,00,00,00,10,03,
5185981,0000046A,false,Rx,4,8,8B,10,0B,10,0B,19,0B,1B,
5186871,0000047A,false,Rx,4,8,8B,18,0B,19,0B,19,0B,17,
5187854,000007EA,false,Rx,4,8,00,00,00,00,00,00,10,0A,
5194781,0000046C,false,Rx,4,6,8B,13,0B,11,0B,1D,00,00,
5195567,0000047C,false,Rx,4,6,8B,1D,0B,1E,0B,1C,00,00,
5196591,000007EC,false,Rx,4,8,0D,0F,00,00,00,00,10,28,
5199349,0000046D,false,Rx,4,6,8B,0E,0B,0E,0B,17,00,00,
5200126,0000047D,false,Rx,4,6,8B,17,0B,18,0B,17,00,00,
5201149,000007ED,false,Rx,4,8,0D,09,00,00,00,00,10,23,
5204334,0000046E,false,Rx,4,6,8B,1B,0B,19,0B,28,00,00,
5205132,0000047E,false,Rx,4,6,8B,29,0B,28,0B,26,00,00,
5206167,000007EE,false,Rx,4,8,00,02,00,00,00,00,10,10,
6023650,00000200,false,Rx,4,3,02,00,00,00,00,00,00,00,
6120189,00000460,false,Rx,4,6,8B,10,0B,10,0B,19,00,00,
6121118,00000460,false,Rx,4,8,8B,0E,0B,0F,0B,18,0B,18,
6122021,00000460,false,Rx,4,8,8B,09,0B,09,0B,12,0B,13,
6123317,00000470,false,Rx,4,8,8B,12,0B,12,0B,13,0B,11,
6124246,00000460,false,Rx,4,8,8B,10,0B,12,0B,1D,0B,1C,
6125533,00000470,false,Rx,4,8,8B,1A,0B,1A,0B,19,0B,1A,
6130275,000007E0,false,Rx,4,8,0D,0A,00,00,00,00,10,17,
6131052,00000470,false,Rx,4,6,8B,19,0B,1A,0B,1A,00,00,
6132057,000007E0,false,Rx,4,8,00,00,00,00,00,00,10,00,
6132989,00000470,false,Rx,4,8,80,02,0B,1A,0B,1B,0B,19,
6134084,000007E0,false,Rx,4,8,0D,0B,00,00,00,00,10,18,
6136861,00000463,false,Rx,4,8,8B,13,0B,13,0B,1D,0B,1F,
6137770,00000473,false,Rx,4,8,8B,1E,0B,1D,0B,1E,0B,1F,
6138764,000007E3,false,Rx,4,8,00,00,00,00,00,00,10,03,
6176449,00000468,false,Rx,4,8,8B,0A,0B,0B,0B,13,0B,12,
6177368,00000478,false,Rx,4,8,8B,13,0B,11,0B,14,0B,13,
6178363,000007E8,false,Rx,4,8,0C,EF,00,00,00,00,10,03,
6187126,0000046A,false,Rx,4,8,8B,10,0B,0E,0B,1A,0B,1A,
6188035,0000047A,false,Rx,4,8,8B,1A,0B,1A,0B,18,0B,1B,
6189019,000007EA,false,Rx,4,8,00,00,00,00,00,00,10,0A,
6195906,0000046C,false,Rx,4,6,8B,13,0B,12,0B,1C,00,00,
6196702,0000047C,false,Rx,4,6,8B,1E,0B,1F,0B,1D,00,00,
6197727,000007EC,false,Rx,4,8,0D,0F,00,00,00,00,10,28,
6200504,0000046D,false,Rx,4,6,8B,0E,0B,0D,0B,17,00,00,
6201281,0000047D,false,Rx,4,6,8B,17,0B,18,0B,17,00,00,
6202295,000007ED,false,Rx,4,8,0D,09,00,00,00,00,10,23,
6205490,0000046E,false,Rx,4,6,8B,1B,0B,1A,0B,29,00,00,
6206277,0000047E,false,Rx,4,6,8B,2A,0B,27,0B,26,00,00,
6207311,000007EE,false,Rx,4,8,00,02,00,00,00,00,10,10,
7024709,00000200,false,Rx,4,3,02,00,00,00,00,00,00,00,
7121225,00000460,false,Rx,4,6,8B,10,0B,10,0B,19,00,00,
7122012,00000470,false,Rx,4,6,8B,1A,0B,1A,0B,1A,00,00,
7123367,00000460,false,Rx,4,8,8B,11,0B,11,0B,1C,0B,1B,
7124289,00000460,false,Rx,4,8,8B,08,0B,08,0B,12,0B,12,
7125194,00000470,false,Rx,4,8,8B,19,0B,19,0B,1A,0B,1C,
7126107,00000470,false,Rx,4,8,8B,12,0B,12,0B,12,0B,12,
7127471,000007E0,false,Rx,4,8,0D,0A,00,00,00,00,10,17,
7128394,00000460,false,Rx,4,8,8B,0E,0B,0F,0B,18,0B,18,
7129406,000007E0,false,Rx,4,8,00,00,00,00,00,00,10,00,
7130341,00000470,false,Rx,4,8,80,02,0B,1A,0B,1C,0B,19,
7131414,000007E0,false,Rx,4,8,00,00,00,00,00,00,10,00,
7137920,00000463,false,Rx,4,8,8B,12,0B,13,0B,1E,0B,1D,
7138829,00000473,false,Rx,4,8,8B,1D,0B,1F,0B,1E,0B,1C,
7139824,000007E3,false,Rx,4,8,00,00,00,00,00,00,10,03,
7146087,000007E0,false,Rx,4,8,0D,0B,00,00,00,00,10,18,
7177500,00000468,false,Rx,4,8,8B,0A,0B,0B,0B,13,0B,13,
7178399,00000478,false,Rx,4,8,8B,13,0B,11,0B,13,0B,13,
7179393,000007E8,false,Rx,4,8,0C,EF,00,00,00,00,10,03,
7188176,0000046A,false,Rx,4,8,8B,11,0B,0E,0B,1B,0B,19,
7189075,0000047A,false,Rx,4,8,8B,1A,0B,1A,0B,19,0B,1B,
7190059,000007EA,false,Rx,4,8,00,00,00,00,00,00,10,0A,
7196957,0000046C,false,Rx,4,6,8B,13,0B,11,0B,1C,00,00,
7197754,0000047C,false,Rx,4,6,8B,1E,0B,1E,0B,1C,00,00,
7198778,000007EC,false,Rx,4,8,0D,0F,00,00,00,00,10,28,
7201534,0000046D,false,Rx,4,6,8B,0E,0B,0E,0B,17,00,00,
7202322,0000047D,false,Rx,4,6,8B,16,0B,17,0B,16,00,00,
7203335,000007ED,false,Rx,4,8,0D,09,00,00,00,00,10,23,
7206561,0000046E,false,Rx,4,6,8B,1C,0B,18,0B,28,00,00,
7207339,0000047E,false,Rx,4,6,8B,29,0B,27,0B,26,00,00,
7208383,000007EE,false,Rx,4,8,00,02,00,00,00,00,10,10,
8028883,00000200,false,Rx,4,3,02,00,00,00,00,00,00,00,
8125378,00000460,false,Rx,4,6,8B,11,0B,0F,0B,18,00,00,
8126176,00000470,false,Rx,4,6,8B,1A,0B,1A,0B,1A,00,00,
8127088,00000460,false,Rx,4,8,8B,08,0B,0A,0B,11,0B,13,
8128009,00000460,false,Rx,4,8,8B,10,0B,10,0B,1B,0B,1A,
8128922,00000470,false,Rx,4,8,8B,12,0B,13,0B,12,0B,12,
8129814,00000470,false,Rx,4,8,8B,19,0B,19,0B,19,0B,1B,
8131572,00000460,false,Rx,4,8,8B,0D,0B,0F,0B,18,0B,18,
8132861,00000470,false,Rx,4,8,80,01,0B,19,0B,1B,0B,19,
8138867,000007E0,false,Rx,4,8,00,00,00,00,00,00,10,00,
8139848,000007E0,false,Rx,4,8,0D,0A,00,00,00,00,10,17,
8140938,000007E0,false,Rx,4,8,0D,0B,00,00,00,00,10,18,
8142115,00000463,false,Rx,4,8,8B,12,0B,12,0B,1F,0B,1D,
8143046,00000473,false,Rx,4,8,8B,1E,0B,1F,0B,1E,0B,1F,
8144040,000007E3,false,Rx,4,8,00,00,00,00,00,00,10,03,
8155254,000007E0,false,Rx,4,8,00,00,00,00,00,00,10,00,
8181683,00000468,false,Rx,4,8,8B,0A,0B,0B,0B,13,0B,12,
8182581,00000478,false,Rx,4,8,8B,13,0B,11,0B,13,0B,12,
8183576,000007E8,false,Rx,4,8,0C,EF,00,00,00,00,10,03,
8192358,0000046A,false,Rx,4,8,8B,0F,0B,0E,0B,1A,0B,18,
8193268,0000047A,false,Rx,4,8,8B,1B,0B,18,0B,19,0B,19,
8194252,000007EA,false,Rx,4,8,00,00,00,00,00,00,10,0A,
8201160,0000046C,false,Rx,4,6,8B,12,0B,12,0B,1D,00,00,
8201958,0000047C,false,Rx,4,6,8B,1E,0B,1E,0B,1C,00,00,
8202951,000007EC,false,Rx,4,8,0D,0E,00,00,00,00,10,27,
8205718,0000046D,false,Rx,4,6,8B,0E,0B,0D,0B,17,00,00,
8206494,0000047D,false,Rx,4,6,8B,17,0B,18,0B,16,00,00,
8207499,000007ED,false,Rx,4,8,0D,09,00,00,00,00,10,23,
8210701,0000046E,false,Rx,4,6,8B,1B,0B,19,0B,29,00,00,
8211488,0000047E,false,Rx,4,6,8B,29,0B,27,0B,26,00,00,
8212522,000007EE,false,Rx,4,8,00,00,00,00,00,00,10,0E,
9029708,00000200,false,Rx,4,3,02,00,00,00,00,00,00,00,
9126216,00000460,false,Rx,4,6,8B,10,0B,10,0B,18,00,00,
9127134,00000460,false,Rx,4,8,8B,0F,0B,0F,0B,18,0B,18,
9128488,00000460,false,Rx,4,8,8B,0F,0B,0F,0B,1C,0B,1D,
9129401,00000460,false,Rx,4,8,8B,08,0B,09,0B,12,0B,12,
9130312,00000470,false,Rx,4,8,8B,1B,0B,1A,0B,1A,0B,1B,
9131226,00000470,false,Rx,4,8,8B,12,0B,12,0B,13,0B,11,
9132240,000007E0,false,Rx,4,8,00,00,00,00,00,00,10,00,
9133224,000007E0,false,Rx,4,8,0D,0B,00,00,00,00,10,18,
9134147,00000470,false,Rx,4,8,80,02,0B,19,0B,1B,0B,19,
9135251,000007E0,false,Rx,4,8,0D,0A,00,00,00,00,10,17,
9136084,00000470,false,Rx,4,6,8B,19,0B,19,0B,1A,00,00,
9142908,00000463,false,Rx,4,8,8B,12,0B,14,0B,1D,0B,1E,
9143837,00000473,false,Rx,4,8,8B,1F,0B,1F,0B,1C,0B,1D,
9144831,000007E3,false,Rx,4,8,00,00,00,00,00,00,10,03,
9182504,00000468,false,Rx,4,8,8B,0A,0B,0B,0B,13,0B,13,
9183404,00000478,false,Rx,4,8,8B,13,0B,11,0B,13,0B,13,
9184388,000007E8,false,Rx,4,8,0C,EF,00,00,00,00,10,03,
9193171,0000046A,false,Rx,4,8,8B,12,0B,0E,0B,1B,0B,18,
9194059,0000047A,false,Rx,4,8,8B,1B,0B,18,0B,19,0B,18,
9195044,000007EA,false,Rx,4,8,00,00,00,00,00,00,10,0A,
9201982,0000046C,false,Rx,4,6,8B,12,0B,12,0B,1D,00,00,
9202769,0000047C,false,Rx,4,6,8B,1F,0B,1D,0B,1C,00,00,
9203773,000007EC,false,Rx,4,8,0D,0F,00,00,00,00,10,28,
9206529,0000046D,false,Rx,4,6,8B,0E,0B,0C,0B,17,00,00,
9207326,0000047D,false,Rx,4,6,8B,16,0B,17,0B,16,00,00,
9208320,000007ED,false,Rx,4,8,0D,09,00,00,00,00,10,23,
9211512,0000046E,false,Rx,4,6,8B,1B,0B,19,0B,28,00,00,
9212300,0000047E,false,Rx,4,6,8B,29,0B,27,0B,26,00,00,
9213344,000007EE,false,Rx,4,8,00,02,00,00,00,00,10,10,
10030164,00000200,false,Rx,4,3,02,00,00,00,00,00,00,00,
10126671,00000460,false,Rx,4,6,8B,11,0B,0F,0B,19,00,00,
10127620,00000460,false,Rx,4,8,8B,0E,0B,0F,0B,18,0B,18,
10128955,00000460,false,Rx,4,8,8B,11,0B,12,0B,1C,0B,1C,
10129868,00000460,false,Rx,4,8,8B,09,0B,08,0B,12,0B,12,
10130779,00000470,false,Rx,4,8,8B,19,0B,19,0B,1B,0B,1C,
10131701,00000470,false,Rx,4,8,8B,12,0B,12,0B,12,0B,12,
10132706,000007E0,false,Rx,4,8,00,00,00,00,00,00,10,00,
10133690,000007E0,false,Rx,4,8,0D,0B,00,00,00,00,10,18,
10134613,00000470,false,Rx,4,8,80,01,0B,19,0B,1A,0B,19,
10135705,000007E0,false,Rx,4,8,0D,0A,00,00,00,00,10,17,
10136549,00000470,false,Rx,4,6,8B,1A,0B,19,0B,1A,00,00,
10143362,00000463,false,Rx,4,8,8B,11,0B,14,0B,1E,0B,1D,
10144303,00000473,false,Rx,4,8,8B,1F,0B,1E,0B,1F,0B,1D,
10145296,000007E3,false,Rx,4,8,00,00,00,00,00,00,10,03,
10182962,00000468,false,Rx,4,8,8B,0B,0B,0C,0B,13,0B,12,
10183850,00000478,false,Rx,4,8,8B,13,0B,11,0B,13,0B,12,
10184845,000007E8,false,Rx,4,8,0C,EF,00,00,00,00,10,03,
10193617,0000046A,false,Rx,4,8,8B,11,0B,0F,0B,19,0B,1B,
10194505,0000047A,false,Rx,4,8,8B,19,0B,1C,0B,17,0B,1B,
10195499,000007EA,false,Rx,4,8,00,00,00,00,00,00,10,0A,
10202468,0000046C,false,Rx,4,6,8B,12,0B,12,0B,1D,00,00,
10203265,0000047C,false,Rx,4,6,8B,1E,0B,1E,0B,1C,00,00,
10204249,000007EC,false,Rx,4,8,0D,0E,00,00,00,00,10,27,
10206986,0000046D,false,Rx,4,6,8B,0E,0B,0D,0B,17,00,00,
10207752,0000047D,false,Rx,4,6,8B,17,0B,17,0B,17,00,00,
10208777,000007ED,false,Rx,4,8,0D,09,00,00,00,00,10,23,
10211980,0000046E,false,Rx,4,6,8B,1B,0B,19,0B,28,00,00,
10212777,0000047E,false,Rx,4,6,8B,2A,0B,27,0B,26,00,00,
10213801,000007EE,false,Rx,4,8,00,01,00,00,00,00,10,0F,
11031168,00000200,false,Rx,4,3,02,00,00,00,00,00,00,00,
11127674,00000460,false,Rx,4,6,8B,11,0B,10,0B,19,00,00,
11128623,00000460,false,Rx,4,8,8B,0E,0B,0E,0B,16,0B,18,
11129948,00000460,false,Rx,4,8,8B,10,0B,0F,0B,1A,0B,1C,
11130871,00000460,false,Rx,4,8,8B,08,0B,08,0B,12,0B,12,
11131772,00000470,false,Rx,4,8,8B,1C,0B,1B,0B,19,0B,1A,
11132685,00000470,false,Rx,4,8,8B,12,0B,13,0B,12,0B,12,
11133699,000007E0,false,Rx,4,8,00,00,00,00,00,00,10,00,
11134683,000007E0,false,Rx,4,8,0D,0B,00,00,00,00,10,18,
11135596,00000470,false,Rx,4,8,80,01,0B,19,0B,1B,0B,18,
11136680,000007E0,false,Rx,4,8,0D,09,00,00,00,00,10,16,
11137522,00000470,false,Rx,4,6,8B,1A,0B,19,0B,1A,00,00,
11144377,00000463,false,Rx,4,8,8B,11,0B,13,0B,1E,0B,1F,
11145306,00000473,false,Rx,4,8,8B,1C,0B,1F,0B,1F,0B,1E,
11146300,000007E3,false,Rx,4,8,00,00,00,00,00,00,10,03,
11183976,00000468,false,Rx,4,8,8B,0A,0B,0B,0B,13,0B,13,
11184886,00000478,false,Rx,4,8,8B,13,0B,12,0B,13,0B,13,
11185880,000007E8,false,Rx,4,8,0C,EF,00,00,00,00,10,03,
11194620,0000046A,false,Rx,4,8,8B,11,0B,10,0B,19,0B,1B,
11195529,0000047A,false,Rx,4,8,8B,18,0B,19,0B,19,0B,19,
11196514,000007EA,false,Rx,4,8,00,00,00,00,00,00,10,0A,
11203431,0000046C,false,Rx,4,6,8B,12,0B,12,0B,1C,00,00,
11204218,0000047C,false,Rx,4,6,8B,1E,0B,1E,0B,1C,00,00,
11205231,000007EC,false,Rx,4,8,0D,0E,00,00,00,00,10,27,
11207979,0000046D,false,Rx,4,6,8B,0F,0B,0D,0B,17,00,00,
11208776,0000047D,false,Rx,4,6,8B,17,0B,17,0B,16,00,00,
11209777,000007ED,false,Rx,4,8,0D,09,00,00,00,00,10,23,
11212992,0000046E,false,Rx,4,6,8B,1B,0B,19,0B,28,00,00,
11213779,0000047E,false,Rx,4,6,8B,29,0B,27,0B,27,00,00,
11214824,000007EE,false,Rx,4,8,00,02,00,00,00,00,10,10,
12034352,00000200,false,Rx,4,3,02,00,00,00,00,00,00,00,
12130870,00000460,false,Rx,4,6,8B,10,0B,10,0B,18,00,00,
12131790,00000460,false,Rx,4,8,8B,0E,0B,0E,0B,17,0B,18,
12133123,00000460,false,Rx,4,8,8B,10,0B,10,0B,1C,0B,1C,
12134026,00000460,false,Rx,4,8,8B,09,0B,09,0B,12,0B,13,
12134940,00000470,false,Rx,4,8,8B,1B,0B,1B,0B,1B,0B,1C,
12135842,00000470,false,Rx,4,8,8B,12,0B,13,0B,12,0B,12,
12136846,000007E0,false,Rx,4,8,00,00,00,00,00,00,10,00,
12137830,000007E0,false,Rx,4,8,0D,0B,00,00,00,00,10,18,
12138764,00000470,false,Rx,4,8,80,02,0B,1A,0B,1B,0B,19,
12147555,00000463,false,Rx,4,8,8B,11,0B,14,0B,1D,0B,1F,
12148484,00000473,false,Rx,4,8,8B,1D,0B,1E,0B,1F,0B,1D,
12149469,000007E3,false,Rx,4,8,00,00,00,00,00,00,10,03,
12153532,000007E0,false,Rx,4,8,0D,0A,00,00,00,00,10,17,
12154300,00000470,false,Rx,4,6,8B,19,0B,19,0B,1A,00,00,
12187154,00000468,false,Rx,4,8,8B,0A,0B,0B,0B,13,0B,12,
12188043,00000478,false,Rx,4,8,8B,13,0B,11,0B,13,0B,13,
12189036,000007E8,false,Rx,4,8,0C,EF,00,00,00,00,10,03,
12197820,0000046A,false,Rx,4,8,8B,0E,0B,11,0B,18,0B,1A,
12198718,0000047A,false,Rx,4,8,8B,1A,0B,17,0B,19,0B,19,
12199701,000007EA,false,Rx,4,8,00,00,00,00,00,00,10,0A,
12206629,0000046C,false,Rx,4,6,8B,12,0B,11,0B,1C,00,00,
12207426,0000047C,false,Rx,4,6,8B,1E,0B,1E,0B,1C,00,00,
12208420,000007EC,false,Rx,4,8,0D,0E,00,00,00,00,10,27,
12211154,0000046D,false,Rx,4,6,8B,0D,0B,0D,0B,17,00,00,
12211931,0000047D,false,Rx,4,6,8B,17,0B,17,0B,17,00,00,
12212965,000007ED,false,Rx,4,8,0D,09,00,00,00,00,10,23,
12216191,0000046E,false,Rx,4,6,8B,1B,0B,19,0B,28,00,00,
12216988,0000047E,false,Rx,4,6,8B,2A,0B,27,0B,26,00,00,
12218013,000007EE,false,Rx,4,8,00,01,00,00,00,00,10,0F,
13038178,00000200,false,Rx,4,3,02,00,00,00,00,00,00,00,
13134674,00000460,false,Rx,4,6,8B,11,0B,10,0B,19,00,00,
13135452,00000470,false,Rx,4,6,8B,1A,0B,19,0B,1A,00,00,
13136355,00000460,false,Rx,4,8,8B,08,0B,09,0B,13,0B,14,
13137276,00000460,false,Rx,4,8,8B,10,0B,12,0B,1C,0B,1A,
13138169,00000470,false,Rx,4,8,8B,1B,0B,1B,0B,19,0B,1A,
13144411,000007E0,false,Rx,4,8,0D,09,00,00,00,00,10,16,
13145411,000007E0,false,Rx,4,8,00,00,00,00,00,00,10,00,
13146513,000007E0,false,Rx,4,8,0D,0B,00,00,00,00,10,18,
13147487,00000470,false,Rx,4,8,8B,12,0B,13,0B,13,0B,12,
13151390,00000463,false,Rx,4,8,8B,12,0B,13,0B,1F,0B,1D,
13152309,00000473,false,Rx,4,8,8B,1E,0B,1E,0B,1E,0B,1D,
13153305,000007E3,false,Rx,4,8,00,00,00,00,00,00,10,03,
13160568,00000460,false,Rx,4,8,8B,0E,0B,0F,0B,18,0B,18,
13161497,00000470,false,Rx,4,8,80,01,0B,1A,0B,1B,0B,19,
13162502,000007E0,false,Rx,4,8,00,00,00,00,00,00,10,00,
13190991,00000468,false,Rx,4,8,8B,0A,0B,0A,0B,13,0B,13,
13191890,00000478,false,Rx,4,8,8B,13,0B,11,0B,13,0B,13,
13192873,000007E8,false,Rx,4,8,0C,EF,00,00,00,00,10,03,
13201645,0000046A,false,Rx,4,8,8B,10,0B,0E,0B,1A,0B,18,
13202544,0000047A,false,Rx,4,8,8B,1A,0B,19,0B,19,0B,1A,
13203527,000007EA,false,Rx,4,8,00,00,00,00,00,00,10,0A,
13210462,0000046C,false,Rx,4,6,8B,12,0B,12,0B,1D,00,00,
13211259,0000047C,false,Rx,4,6,8B,1E,0B,1E,0B,1C,00,00,
13212243,000007EC,false,Rx,4,8,0D,0E,00,00,00,00,10,27,
13215001,0000046D,false,Rx,4,6,8B,0E,0B,0D,0B,17,00,00,
13215779,0000047D,false,Rx,4,6,8B,17,0B,17,0B,16,00,00,
13216792,000007ED,false,Rx,4,8,0D,09,00,00,00,00,10,23,
13220029,0000046E,false,Rx,4,6,8B,1B,0B,18,0B,29,00,00,
13220826,0000047E,false,Rx,4,6,8B,2A,0B,27,0B,26,00,00,
13221850,000007EE,false,Rx,4,8,00,02,00,00,00,00,10,10,
14039560,00000200,false,Rx,4,3,02,00,00,00,00,00,00,00,
14136066,00000460,false,Rx,4,6,8B,11,0B,0F,0B,19,00,00,
14136833,00000470,false,Rx,4,6,8B,19,0B,19,0B,1A,00,00,
14138187,00000460,false,Rx,4,8,8B,0E,0B,0F,0B,17,0B,18,
14139090,00000460,false,Rx,4,8,8B,09,0B,09,0B,13,0B,12,
14140003,00000470,false,Rx,4,8,80,01,0B,19,0B,1B,0B,18,
14140917,00000470,false,Rx,4,8,8B,12,0B,13,0B,12,0B,12,
14142574,00000460,false,Rx,4,8,8B,0F,0B,10,0B,1D,0B,1D,
14143842,00000470,false,Rx,4,8,8B,1B,0B,19,0B,19,0B,1B,
14144855,000007E0,false,Rx,4,8,00,00,00,00,00,00,10,00,
14145859,000007E0,false,Rx,4,8,00,00,00,00,00,00,10,00,
14146952,000007E0,false,Rx,4,8,0D,0A,00,00,00,00,10,17,
14152770,00000463,false,Rx,4,8,8B,12,0B,12,0B,1F,0B,1D,
14153688,00000473,false,Rx,4,8,8B,1E,0B,1E,0B,1E,0B,1F,
14154683,000007E3,false,Rx,4,8,00,00,00,00,00,00,10,03,
14161558,000007E0,false,Rx,4,8,0D,0B,00,00,00,00,10,18,
14192351,00000468,false,Rx,4,8,8B,0A,0B,0B,0B,13,0B,12,
14193270,00000478,false,Rx,4,8,8B,13,0B,12,0B,13,0B,13,
14194254,000007E8,false,Rx,4,8,0C,EF,00,00,00,00,10,03,
14203028,0000046A,false,Rx,4,8,8B,10,0B,0F,0B,1A,0B,19,
14203928,0000047A,false,Rx,4,8,8B,1B,0B,18,0B,1A,0B,17,
14204912,000007EA,false,Rx,4,8,00,00,00,00,00,00,10,0A,
14211836,0000046C,false,Rx,4,6,8B,13,0B,11,0B,1C,00,00,
14212622,0000047C,false,Rx,4,6,8B,1D,0B,1E,0B,1C,00,00,
14213646,000007EC,false,Rx,4,8,0D,0F,00,00,00,00,10,28,
14216373,0000046D,false,Rx,4,6,8B,0E,0B,0E,0B,17,00,00,
14217160,0000047D,false,Rx,4,6,8B,17,0B,17,0B,16,00,00,
14218163,000007ED,false,Rx,4,8,0D,08,00,00,00,00,10,22,
14221389,0000046E,false,Rx,4,6,8B,1B,0B,19,0B,28,00,00,
14222186,0000047E,false,Rx,4,6,8B,29,0B,27,0B,27,00,00,
14223221,000007EE,false,Rx,4,8,00,02,00,00,00,00,10,10,
15040274,00000200,false,Rx,4,3,02,00,00,00,00,00,00,00,
15136790,00000460,false,Rx,4,6,8B,10,0B,10,0B,19,00,00,
15137697,00000460,false,Rx,4,8,8B,0E,0B,0F,0B,17,0B,18,
15138601,00000460,false,Rx,4,8,8B,09,0B,08,0B,13,0B,12,
15139512,00000470,false,Rx,4,8,8B,12,0B,13,0B,12,0B,12,
15141182,00000460,false,Rx,4,8,8B,0F,0B,10,0B,1C,0B,1D,
15142459,00000470,false,Rx,4,8,8B,1C,0B,1B,0B,1B,0B,1B,
15148529,000007E0,false,Rx,4,8,00,00,00,00,00,00,10,00,
15149508,000007E0,false,Rx,4,8,0D,09,00,00,00,00,10,16,
15150431,00000470,false,Rx,4,8,80,01,0B,1A,0B,1C,0B,19,
15151211,00000470,false,Rx,4,6,8B,1A,0B,19,0B,1A,00,00,
15152306,000007E0,false,Rx,4,8,0D,0B,00,00,00,00,10,18,
15153480,00000463,false,Rx,4,8,8B,11,0B,14,0B,1E,0B,1F,
15154393,00000473,false,Rx,4,8,8B,1C,0B,1E,0B,1E,0B,1E,
15155386,000007E3,false,Rx,4,8,00,00,00,00,00,00,10,03,
15193062,00000468,false,Rx,4,8,8B,0B,0B,0B,0B,13,0B,12,
15193962,00000478,false,Rx,4,8,8B,13,0B,11,0B,13,0B,13,
15194955,000007E8,false,Rx,4,8,0C,EF,00,00,00,00,10,03,
15203738,0000046A,false,Rx,4,8,8B,10,0B,0E,0B,1B,0B,17,
15204627,0000047A,false,Rx,4,8,8B,1B,0B,19,0B,19,0B,1A,
15205611,000007EA,false,Rx,4,8,00,00,00,00,00,00,10,0A,
15212547,0000046C,false,Rx,4,6,8B,12,0B,11,0B,1C,00,00,
15213344,0000047C,false,Rx,4,6,8B,1E,0B,1E,0B,1C,00,00,
15214337,000007EC,false,Rx,4,8,0D,0E,00,00,00,00,10,27,
15217095,0000046D,false,Rx,4,6,8B,0E,0B,0D,0B,17,00,00,
15217893,0000047D,false,Rx,4,6,8B,16,0B,17,0B,16,00,00,
15218886,000007ED,false,Rx,4,8,0D,09,00,00,00,00,10,23,
15222111,0000046E,false,Rx,4,6,8B,1C,0B,19,0B,28,00,00,
15222888,0000047E,false,Rx,4,6,8B,29,0B,27,0B,25,00,00,
15223943,000007EE,false,Rx,4,8,00,00,00,00,00,00,10,0E,
16045253,00000200,false,Rx,4,3,02,00,00,00,00,00,00,00,
16141770,00000460,false,Rx,4,6,8B,10,0B,10,0B,19,00,00,
16142677,00000460,false,Rx,4,8,8B,0F,0B,0F,0B,18,0B,18,
16143590,00000460,false,Rx,4,8,8B,08,0B,09,0B,13,0B,13,
16144604,000007E0,false,Rx,4,8,00,00,00,00,00,00,10,00,
16145516,00000470,false,Rx,4,8,8B,12,0B,12,0B,12,0B,12,
16146458,00000470,false,Rx,4,8,80,02,0B,1A,0B,1C,0B,19,
16147441,000007E0,false,Rx,4,8,0D,0B,00,00,00,00,10,18,
16148525,000007E0,false,Rx,4,8,0D,09,00,00,00,00,10,16,
16149367,00000470,false,Rx,4,6,8B,1A,0B,19,0B,1A,00,00,
16158463,00000463,false,Rx,4,8,8B,13,0B,12,0B,1F,0B,1E,
16159372,00000473,false,Rx,4,8,8B,1C,0B,20,0B,1D,0B,1D,
16160365,000007E3,false,Rx,4,8,00,00,00,00,00,00,10,03,
16163653,00000460,false,Rx,4,8,8B,0F,0B,10,0B,1C,0B,1D,
16164564,00000470,false,Rx,4,8,8B,1C,0B,1B,0B,1A,0B,1A,
16165578,000007E0,false,Rx,4,8,00,00,00,00,00,00,10,00,
16198044,00000468,false,Rx,4,8,8B,0A,0B,0B,0B,13,0B,12,
16198963,00000478,false,Rx,4,8,8B,13,0B,12,0B,14,0B,13,
16199948,000007E8,false,Rx,4,8,0C,EE,00,00,00,00,10,02,
16208689,0000046A,false,Rx,4,8,8B,0E,0B,11,0B,19,0B,19,
16209585,0000047A,false,Rx,4,8,8B,1B,0B,18,0B,19,0B,1A,
16210569,000007EA,false,Rx,4,8,00,00,00,00,00,00,10,0A,
16217519,0000046C,false,Rx,4,6,8B,12,0B,12,0B,1C,00,00,
16218306,0000047C,false,Rx,4,6,8B,1E,0B,1E,0B,1C,00,00,
16219320,000007EC,false,Rx,4,8,0D,0E,00,00,00,00,10,27,
16222056,0000046D,false,Rx,4,6,8B,0F,0B,0D,0B,17,00,00,
16222853,0000047D,false,Rx,4,6,8B,17,0B,17,0B,16,00,00,
16223868,000007ED,false,Rx,4,8,0D,09,00,00,00,00,10,23,
16227063,0000046E,false,Rx,4,6,8B,1C,0B,19,0B,28,00,00,
16227860,0000047E,false,Rx,4,6,8B,2A,0B,27,0B,26,00,00,
16228894,000007EE,false,Rx,4,8,00,00,00,00,00,00,10,0E,
17050070,00000200,false,Rx,4,3,02,00,00,00,00,00,00,00,
17146615,00000460,false,Rx,4,6,8B,10,0B,0F,0B,19,00,00,
17147543,00000460,false,Rx,4,8,8B,0E,0B,10,0B,18,0B,19,
17148900,00000460,false,Rx,4,8,8B,0E,0B,0E,0B,19,0B,1A,
17149803,00000460,false,Rx,4,8,8B,09,0B,08,0B,13,0B,12,
17150714,00000470,false,Rx,4,8,8B,18,0B,19,0B,1A,0B,1A,
17151627,00000470,false,Rx,4,8,8B,12,0B,13,0B,12,0B,12,
17152641,000007E0,false,Rx,4,8,00,00,00,00,00,00,10,00,
17153625,000007E0,false,Rx,4,8,0D,0B,00,00,00,00,10,18,
17154539,00000470,false,Rx,4,8,80,01,0B,1A,0B,1D,0B,19,
17163281,00000463,false,Rx,4,8,8B,13,0B,12,0B,20,0B,1E,
17164190,00000473,false,Rx,4,8,8B,1D,0B,1F,0B,1D,0B,1E,
17165183,000007E3,false,Rx,4,8,00,00,00,00,00,00,10,03,
17169156,000007E0,false,Rx,4,8,0D,0A,00,00,00,00,10,17,
17169944,00000470,false,Rx,4,6,8B,1A,0B,1A,0B,19,00,00,
17202867,00000468,false,Rx,4,8,8B,0A,0B,0B,0B,13,0B,13,
17203766,00000478,false,Rx,4,8,8B,13,0B,11,0B,13,0B,13,
17204750,000007E8,false,Rx,4,8,0C,EE,00,00,00,00,10,02,
17213528,0000046A,false,Rx,4,8,8B,0E,0B,13,0B,18,0B,1A,
17214438,0000047A,false,Rx,4,8,8B,1A,0B,18,0B,1A,0B,19,
17215422,000007EA,false,Rx,4,8,00,00,00,00,00,00,10,0A,
17222329,0000046C,false,Rx,4,6,8B,13,0B,12,0B,1D,00,00,
17223136,0000047C,false,Rx,4,6,8B,1E,0B,1E,0B,1D,00,00,
17224140,000007EC,false,Rx,4,8,0D,0E,00,00,00,00,10,27,
17226919,0000046D,false,Rx,4,6,8B,0E,0B,0E,0B,18,00,00,
17227694,0000047D,false,Rx,4,6,8B,17,0B,17,0B,17,00,00,
17228720,000007ED,false,Rx,4,8,0D,09,00,00,00,00,10,23,
17231915,0000046E,false,Rx,4,6,8B,1B,0B,19,0B,28,00,00,
17232711,0000047E,false,Rx,4,6,8B,29,0B,26,0B,26,00,00,
17233737,000007EE,false,Rx,4,8,00,01,00,00,00,00,10,0F,
18055244,00000200,false,Rx,4,3,02,00,00,00,00,00,00,00,
18151759,00000460,false,Rx,4,6,8B,11,0B,0F,0B,19,00,00,
18152534,00000470,false,Rx,4,6,8B,1A,0B,19,0B,1A,00,00,
18153437,00000460,false,Rx,4,8,8B,09,0B,09,0B,12,0B,13,
18154358,00000460,false,Rx,4,8,8B,12,0B,10,0B,1A,0B,1B,
18155706,00000470,false,Rx,4,8,8B,1C,0B,1B,0B,19,0B,1A,
18156627,00000460,false,Rx,4,8,8B,0E,0B,0F,0B,18,0B,18,
18157552,00000470,false,Rx,4,8,8B,12,0B,12,0B,12,0B,11,
18158474,00000470,false,Rx,4,8,80,01,0B,1A,0B,1C,0B,1A,
18165502,000007E0,false,Rx,4,8,00,00,00,00,00,00,10,00,
18166512,000007E0,false,Rx,4,8,00,00,00,00,00,00,10,00,
18167593,000007E0,false,Rx,4,8,0D,09,00,00,00,00,10,16,
18168517,00000463,false,Rx,4,8,8B,12,0B,12,0B,1F,0B,1D,
18169440,00000473,false,Rx,4,8,8B,1E,0B,1F,0B,1D,0B,1E,
18170434,000007E3,false,Rx,4,8,00,00,00,00,00,00,10,03,
18182500,000007E0,false,Rx,4,8,0D,0B,00,00,00,00,10,18,
18208042,00000468,false,Rx,4,8,8B,0A,0B,0B,0B,13,0B,12,
18208942,00000478,false,Rx,4,8,8B,13,0B,11,0B,13,0B,12,
18209923,000007E8,false,Rx,4,8,0C,EE,00,00,00,00,10,02,
18218704,0000046A,false,Rx,4,8,8B,10,0B,0E,0B,1A,0B,1B,
18219592,0000047A,false,Rx,4,8,8B,17,0B,1B,0B,19,0B,17,
18220577,000007EA,false,Rx,4,8,00,00,00,00,00,00,10,0A,
18227535,0000046C,false,Rx,4,6,8B,13,0B,12,0B,1B,00,00,
18228332,0000047C,false,Rx,4,6,8B,1E,0B,1E,0B,1C,00,00,
18229336,000007EC,false,Rx,4,8,0D,0E,00,00,00,00,10,27,
18232063,0000046D,false,Rx,4,6,8B,0D,0B,0D,0B,16,00,00,
18232861,0000047D,false,Rx,4,6,8B,17,0B,17,0B,16,00,00,
18233875,000007ED,false,Rx,4,8,0D,08,00,00,00,00,10,22,
18237080,0000046E,false,Rx,4,6,8B,1B,0B,18,0B,28,00,00,
18237867,0000047E,false,Rx,4,6,8B,29,0B,26,0B,26,00,00,
18238892,000007EE,false,Rx,4,8,00,01,00,00,00,00,10,0F,
19058484,00000200,false,Rx,4,3,02,00,00,00,00,00,00,00,
19155010,00000460,false,Rx,4,6,8B,11,0B,10,0B,18,00,00,
19155930,00000460,false,Rx,4,8,8B,0E,0B,0F,0B,18,0B,18,
19156843,00000460,false,Rx,4,8,8B,08,0B,09,0B,13,0B,13,
19157754,00000470,false,Rx,4,8,8B,12,0B,12,0B,13,0B,12,
19159118,000007E0,false,Rx,4,8,0D,0B,00,00,00,00,10,18,
19160031,00000460,false,Rx,4,8,8B,10,0B,0F,0B,19,0B,1A,
19161035,000007E0,false,Rx,4,8,00,00,00,00,00,00,10,00,
19161938,00000470,false,Rx,4,8,8B,19,0B,1B,0B,1C,0B,1C,
19162872,00000470,false,Rx,4,8,80,02,0B,19,0B,1C,0B,19,
19163885,000007E0,false,Rx,4,8,00,00,00,00,00,00,10,00,
19164970,000007E0,false,Rx,4,8,0D,09,00,00,00,00,10,16,
19165830,00000470,false,Rx,4,6,8B,1A,0B,1A,0B,1A,00,00,
19171696,00000463,false,Rx,4,8,8B,12,0B,13,0B,1D,0B,1F,
19172585,00000473,false,Rx,4,8,8B,1D,0B,20,0B,1D,0B,1E,
19173580,000007E3,false,Rx,4,8,00,00,00,00,00,00,10,03,
19211284,00000468,false,Rx,4,8,8B,0A,0B,0B,0B,13,0B,12,
19212183,00000478,false,Rx,4,8,8B,13,0B,11,0B,13,0B,12,
19213166,000007E8,false,Rx,4,8,0C,EE,00,00,00,00,10,02,
19221940,0000046A,false,Rx,4,8,8B,0F,0B,10,0B,1A,0B,19,
19222849,0000047A,false,Rx,4,8,8B,1A,0B,18,0B,1A,0B,19,
19223833,000007EA,false,Rx,4,8,00,00,00,00,00,00,10,0A,
19230790,0000046C,false,Rx,4,6,8B,12,0B,11,0B,1C,00,00,
19231566,0000047C,false,Rx,4,6,8B,1D,0B,1D,0B,1C,00,00,
19232580,000007EC,false,Rx,4,8,0D,0E,00,00,00,00,10,27,
19235318,0000046D,false,Rx,4,6,8B,0E,0B,0D,0B,17,00,00,
19236106,0000047D,false,Rx,4,6,8B,16,0B,17,0B,16,00,00,
19237109,000007ED,false,Rx,4,8,0D,08,00,00,00,00,10,22,
19240314,0000046E,false,Rx,4,6,8B,1B,0B,18,0B,28,00,00,
19241102,0000047E,false,Rx,4,6,8B,29,0B,26,0B,26,00,00,
19242127,000007EE,false,Rx,4,8,00,01,00,00,00,00,10,0F,
20059632,00000200,false,Rx,4,3,02,00,00,00,00,00,00,00,
20156146,00000460,false,Rx,4,6,8B,10,0B,0F,0B,18,00,00,
20157075,00000460,false,Rx,4,8,8B,0E,0B,0F,0B,18,0B,18,
20157978,00000460,false,Rx,4,8,8B,09,0B,09,0B,13,0B,12,
20158891,00000470,false,Rx,4,8,8B,13,0B,12,0B,13,0B,12,
20160244,000007E0,false,Rx,4,8,0D,0B,00,00,00,00,10,18,
20161147,00000460,false,Rx,4,8,8B,0F,0B,10,0B,1D,0B,1C,
20162162,000007E0,false,Rx,4,8,00,00,00,00,00,00,10,00,
20163065,00000470,false,Rx,4,8,8B,1A,0B,19,0B,1B,0B,1B,
20163998,00000470,false,Rx,4,8,80,02,0B,1A,0B,1C,0B,19,
20165011,000007E0,false,Rx,4,8,00,00,00,00,00,00,10,00,
20166097,000007E0,false,Rx,4,8,0D,09,00,00,00,00,10,16,
20166937,00000470,false,Rx,4,6,8B,1A,0B,19,0B,19,00,00,
20172825,00000463,false,Rx,4,8,8B,11,0B,14,0B,1D,0B,1E,
20173764,00000473,false,Rx,4,8,8B,1E,0B,1D,0B,1F,0B,1F,
20174758,000007E3,false,Rx,4,8,00,00,00,00,00,00,10,03,
20212429,00000468,false,Rx,4,8,8B,0A,0B,0B,0B,13,0B,13,
20213328,00000478,false,Rx,4,8,8B,13,0B,11,0B,14,0B,12,
20214313,000007E8,false,Rx,4,8,0C,EE,00,00,00,00,10,02,
20223085,0000046A,false,Rx,4,8,8B,10,0B,0F,0B,1B,0B,18,
20223994,0000047A,false,Rx,4,8,8B,1B,0B,18,0B,19,0B,19,
20224979,000007EA,false,Rx,4,8,00,00,00,00,00,00,10,0A,
20231906,0000046C,false,Rx,4,6,8B,13,0B,11,0B,1C,00,00,
20232702,0000047C,false,Rx,4,6,8B,1D,0B,1E,0B,1C,00,00,
20233715,000007EC,false,Rx,4,8,0D,0E,00,00,00,00,10,27,
20236473,0000046D,false,Rx,4,6,8B,0E,0B,0D,0B,17,00,00,
20237260,0000047D,false,Rx,4,6,8B,16,0B,17,0B,16,00,00,
20238253,000007ED,false,Rx,4,8,0D,08,00,00,00,00,10,22,
20241448,0000046E,false,Rx,4,6,8B,1B,0B,19,0B,28,00,00,
20242245,0000047E,false,Rx,4,6,8B,2A,0B,26,0B,26,00,00,
20243268,000007EE,false,Rx,4,8,00,01,00,00,00,00,10,0F,
21061435,00000200,false,Rx,4,3,02,00,00,00,00,00,00,00,
21157940,00000460,false,Rx,4,6,8B,10,0B,10,0B,19,00,00,
21158881,00000460,false,Rx,4,8,8B,0E,0B,10,0B,18,0B,18,
21159794,00000460,false,Rx,4,8,8B,08,0B,09,0B,12,0B,13,
21160704,00000470,false,Rx,4,8,8B,12,0B,13,0B,12,0B,12,
21162060,000007E0,false,Rx,4,8,0D,0B,00,00,00,00,10,18,
21162962,00000460,false,Rx,4,8,8B,10,0B,0F,0B,1B,0B,1D,
21163976,000007E0,false,Rx,4,8,00,00,00,00,00,00,10,00,
21164889,00000470,false,Rx,4,8,8B,1B,0B,19,0B,19,0B,1D,
21165833,00000470,false,Rx,4,8,80,02,0B,1A,0B,1C,0B,1A,
21166846,000007E0,false,Rx,4,8,00,00,00,00,00,00,10,00,
21167930,000007E0,false,Rx,4,8,0D,09,00,00,00,00,10,16,
21168771,00000470,false,Rx,4,6,8B,1A,0B,19,0B,1B,00,00,
21174647,00000463,false,Rx,4,8,8B,13,0B,12,0B,1E,0B,1F,
21175566,00000473,false,Rx,4,8,8B,1C,0B,1F,0B,1E,0B,1C,
21176561,000007E3,false,Rx,4,8,00,00,00,00,00,00,10,03,
21214234,00000468,false,Rx,4,8,8B,09,0B,0B,0B,13,0B,12,
21215133,00000478,false,Rx,4,8,8B,13,0B,11,0B,13,0B,12,
21216117,000007E8,false,Rx,4,8,0C,EE,00,00,00,00,10,02,
21224901,0000046A,false,Rx,4,8,8B,0F,0B,10,0B,18,0B,1B,
21225809,0000047A,false,Rx,4,8,8B,18,0B,1A,0B,17,0B,1A,
21226793,000007EA,false,Rx,4,8,00,00,00,00,00,00,10,0A,
21233732,0000046C,false,Rx,4,6,8B,12,0B,10,0B,1D,00,00,
21234518,0000047C,false,Rx,4,6,8B,1D,0B,1D,0B,1C,00,00,
21235521,000007EC,false,Rx,4,8,0D,0E,00,00,00,00,10,27,
21238258,0000046D,false,Rx,4,6,8B,0E,0B,0E,0B,17,00,00,
21239025,0000047D,false,Rx,4,6,8B,17,0B,17,0B,17,00,00,
21240059,000007ED,false,Rx,4,8,0D,08,00,00,00,00,10,22,
21243265,0000046E,false,Rx,4,6,8B,1B,0B,19,0B,28,00,00,
21244052,0000047E,false,Rx,4,6,8B,29,0B,27,0B,25,00,00,
21245096,000007EE,false,Rx,4,8,00,01,00,00,00,00,10,0F,
22062643,00000200,false,Rx,4,3,02,00,00,00,00,00,00,00,
22159158,00000460,false,Rx,4,6,8B,10,0B,10,0B,18,00,00,
22160057,00000460,false,Rx,4,8,8B,0D,0B,0F,0B,17,0B,18,
22160959,00000460,false,Rx,4,8,8B,09,0B,09,0B,14,0B,12,
22161882,00000470,false,Rx,4,8,8B,12,0B,12,0B,12,0B,12,
22163235,000007E0,false,Rx,4,8,0D,0B,00,00,00,00,10,18,
22164149,00000460,false,Rx,4,8,8B,10,0B,11,0B,1C,0B,1C,
22165164,000007E0,false,Rx,4,8,00,00,00,00,00,00,10,00,
22166067,00000470,false,Rx,4,8,8B,1A,0B,19,0B,1A,0B,1C,
22167011,00000470,false,Rx,4,8,80,02,0B,19,0B,1C,0B,19,
22168014,000007E0,false,Rx,4,8,00,00,00,00,00,00,10,00,
22175849,00000463,false,Rx,4,8,8B,11,0B,14,0B,1D,0B,1F,
22176758,00000473,false,Rx,4,8,8B,1D,0B,1D,0B,1F,0B,1D,
22177752,000007E3,false,Rx,4,8,00,00,00,00,00,00,10,03,
22182507,000007E0,false,Rx,4,8,0D,09,00,00,00,00,10,16,
22183285,00000470,false,Rx,4,6,8B,1A,0B,19,0B,1A,00,00,
22215441,00000468,false,Rx,4,8,8B,0A,0B,0B,0B,13,0B,12,
22216340,00000478,false,Rx,4,8,8B,13,0B,11,0B,13,0B,13,
22217325,000007E8,false,Rx,4,8,0C,EE,00,00,00,00,10,02,
22226108,0000046A,false,Rx,4,8,8B,11,0B,0E,0B,1B,0B,19,
22226997,0000047A,false,Rx,4,8,8B,1B,0B,19,0B,19,0B,19,
22227982,000007EA,false,Rx,4,8,00,00,00,00,00,00,10,0A,
22234899,0000046C,false,Rx,4,6,8B,13,0B,12,0B,1C,00,00,
22235686,0000047C,false,Rx,4,6,8B,1D,0B,1E,0B,1C,00,00,
22236709,000007EC,false,Rx,4,8,0D,0E,00,00,00,00,10,27,
22239497,0000046D,false,Rx,4,6,8B,0E,0B,0D,0B,17,00,00,
22240275,0000047D,false,Rx,4,6,8B,17,0B,17,0B,15,00,00,
22241298,000007ED,false,Rx,4,8,0D,09,00,00,00,00,10,23,
22244493,0000046E,false,Rx,4,6,8B,1B,0B,18,0B,28,00,00,
22245280,0000047E,false,Rx,4,6,8B,2A,0B,27,0B,26,00,00,
22246315,000007EE,false,Rx,4,8,00,02,00,00,00,00,10,10,
23068114,00000200,false,Rx,4,3,02,00,00,00,00,00,00,00,
23164643,00000460,false,Rx,4,6,8B,10,0B,10,0B,18,00,00,
23165430,00000470,false,Rx,4,6,8B,1A,0B,18,0B,1A,00,00,
23166332,00000460,false,Rx,4,8,8B,08,0B,09,0B,13,0B,12,
23167234,00000460,false,Rx,4,8,8B,11,0B,11,0B,1C,0B,1D,
23168157,00000470,false,Rx,4,8,8B,12,0B,12,0B,12,0B,12,
23169048,00000470,false,Rx,4,8,8B,1B,0B,19,0B,19,0B,19,
23175993,000007E0,false,Rx,4,8,0D,09,00,00,00,00,10,16,
23176973,000007E0,false,Rx,4,8,0D,0B,00,00,00,00,10,18,
23181332,00000463,false,Rx,4,8,8B,12,0B,12,0B,1F,0B,1D,
23182251,00000473,false,Rx,4,8,8B,1E,0B,1E,0B,1F,0B,1D,
23183245,000007E3,false,Rx,4,8,00,00,00,00,00,00,10,03,
23190143,00000460,false,Rx,4,8,8B,0E,0B,0F,0B,18,0B,19,
23191073,00000470,false,Rx,4,8,80,01,0B,1A,0B,1B,0B,19,
23192076,000007E0,false,Rx,4,8,00,00,00,00,00,00,10,00,
23193969,000007E0,false,Rx,4,8,00,00,00,00,00,00,10,00,
23220914,00000468,false,Rx,4,8,8B,0A,0B,0B,0B,13,0B,13,
23221803,00000478,false,Rx,4,8,8B,13,0B,11,0B,13,0B,13,
23222786,000007E8,false,Rx,4,8,0C,EE,00,00,00,00,10,02,
23231588,0000046A,false,Rx,4,8,8B,0E,0B,12,0B,18,0B,1B,
23232498,0000047A,false,Rx,4,8,8B,1A,0B,19,0B,19,0B,17,
23233482,000007EA,false,Rx,4,8,00,00,00,00,00,00,10,0A,
23240370,0000046C,false,Rx,4,6,8B,13,0B,11,0B,1D,00,00,
23241177,0000047C,false,Rx,4,6,8B,1E,0B,1F,0B,1C,00,00,
23242180,000007EC,false,Rx,4,8,0D,0E,00,00,00,00,10,27,
23244969,0000046D,false,Rx,4,6,8B,0E,0B,0D,0B,17,00,00,
23245756,0000047D,false,Rx,4,6,8B,17,0B,17,0B,16,00,00,
23246759,000007ED,false,Rx,4,8,0D,08,00,00,00,00,10,22,
23249974,0000046E,false,Rx,4,6,8B,1B,0B,18,0B,28,00,00,
23250761,0000047E,false,Rx,4,6,8B,2A,0B,27,0B,25,00,00,
23251776,000007EE,false,Rx,4,8,00,01,00,00,00,00,10,0F,
24072071,00000200,false,Rx,4,3,02,00,00,00,00,00,00,00,
24168577,00000460,false,Rx,4,6,8B,11,0B,10,0B,19,00,00,
24169354,00000470,false,Rx,4,6,8B,1A,0B,19,0B,1A,00,00,
24177261,00000460,false,Rx,4,8,8B,0E,0B,0F,0B,18,0B,18,
24178169,00000460,false,Rx,4,8,8B,08,0B,09,0B,12,0B,13,
24179093,00000470,false,Rx,4,8,80,02,0B,19,0B,1B,0B,19,
24180014,00000470,false,Rx,4,8,8B,12,0B,12,0B,12,0B,12,
24181368,000007E0,false,Rx,4,8,0D,09,00,00,00,00,10,16,
24182271,00000460,false,Rx,4,8,8B,12,0B,11,0B,1D,0B,1D,
24183276,000007E0,false,Rx,4,8,00,00,00,00,00,00,10,00,
24184189,00000470,false,Rx,4,8,8B,1C,0B,1B,0B,1A,0B,1B,
24185264,000007E0,false,Rx,4,8,00,00,00,00,00,00,10,00,
24186186,00000463,false,Rx,4,8,8B,12,0B,12,0B,1F,0B,1E,
24187100,00000473,false,Rx,4,8,8B,1C,0B,20,0B,1D,0B,1D,
24188081,000007E0,false,Rx,4,8,0D,0B,00,00,00,00,10,18,
24189075,000007E3,false,Rx,4,8,00,00,00,00,00,00,10,03,
24224861,00000468,false,Rx,4,8,8B,0A,0B,0B,0B,13,0B,12,
24225760,00000478,false,Rx,4,8,8B,13,0B,11,0B,13,0B,13,
24226744,000007E8,false,Rx,4,8,0C,EE,00,00,00,00,10,02,
24235536,0000046A,false,Rx,4,8,8B,10,0B,0E,0B,19,0B,1A,
24236446,0000047A,false,Rx,4,8,8B,18,0B,1C,0B,18,0B,1A,
24237430,000007EA,false,Rx,4,8,00,00,00,00,00,00,10,0A,
24244317,0000046C,false,Rx,4,6,8B,13,0B,11,0B,1D,00,00,
24245104,0000047C,false,Rx,4,6,8B,1D,0B,1E,0B,1C,00,00,
24246127,000007EC,false,Rx,4,8,0D,0E,00,00,00,00,10,27,
24248906,0000046D,false,Rx,4,6,8B,0E,0B,0D,0B,17,00,00,
24249692,0000047D,false,Rx,4,6,8B,16,0B,18,0B,16,00,00,
24250685,000007ED,false,Rx,4,8,0D,08,00,00,00,00,10,22,
24253892,0000046E,false,Rx,4,6,8B,1B,0B,18,0B,27,00,00,
24254689,0000047E,false,Rx,4,6,8B,2A,0B,27,0B,26,00,00,
24255702,000007EE,false,Rx,4,8,00,01,00,00,00,00,10,0F,
25074355,00000200,false,Rx,4,3,02,00,00,00,00,00,00,00,
25170861,00000460,false,Rx,4,6,8B,11,0B,0F,0B,18,00,00,
25171779,00000460,false,Rx,4,8,8B,0E,0B,0F,0B,18,0B,19,
25172681,00000460,false,Rx,4,8,8B,09,0B,09,0B,12,0B,12,
25173968,00000470,false,Rx,4,8,8B,12,0B,13,0B,13,0B,11,
25174871,00000460,false,Rx,4,8,8B,0F,0B,10,0B,1D,0B,1D,
25176156,00000470,false,Rx,4,8,8B,1A,0B,19,0B,1A,0B,1C,
25177167,000007E0,false,Rx,4,8,00,00,00,00,00,00,10,00,
25178170,000007E0,false,Rx,4,8,00,00,00,00,00,00,10,00,
25179102,00000470,false,Rx,4,8,80,02,0B,19,0B,1B,0B,19,
25180187,000007E0,false,Rx,4,8,0D,09,00,00,00,00,10,16,
25181028,00000470,false,Rx,4,6,8B,1A,0B,19,0B,1A,00,00,
25187572,00000463,false,Rx,4,8,8B,12,0B,15,0B,1D,0B,1F,
25188501,00000473,false,Rx,4,8,8B,1D,0B,1E,0B,1F,0B,1D,
25189496,000007E3,false,Rx,4,8,00,00,00,00,00,00,10,03,
25195496,000007E0,false,Rx,4,8,0D,0B,00,00,00,00,10,18,
25227152,00000468,false,Rx,4,8,8B,0A,0B,0B,0B,13,0B,13,
25228051,00000478,false,Rx,4,8,8B,13,0B,11,0B,13,0B,13,
25229045,000007E8,false,Rx,4,8,0C,EF,00,00,00,00,10,03,
25237818,0000046A,false,Rx,4,8,8B,11,0B,10,0B,18,0B,1C,
25238727,0000047A,false,Rx,4,8,8B,1A,0B,19,0B,1A,0B,19,
25239710,000007EA,false,Rx,4,8,00,00,00,00,00,00,10,0A,
25246618,0000046C,false,Rx,4,6,8B,13,0B,11,0B,1D,00,00,
25247405,0000047C,false,Rx,4,6,8B,1E,0B,1D,0B,1D,00,00,
25248418,000007EC,false,Rx,4,8,0D,0E,00,00,00,00,10,27,
25251207,0000046D,false,Rx,4,6,8B,0E,0B,0D,0B,16,00,00,
25252004,0000047D,false,Rx,4,6,8B,16,0B,17,0B,16,00,00,
25253007,000007ED,false,Rx,4,8,0D,08,00,00,00,00,10,22,
25256173,0000046E,false,Rx,4,6,8B,1B,0B,19,0B,28,00,00,
25256960,0000047E,false,Rx,4,6,8B,29,0B,26,0B,26,00,00,
25258003,000007EE,false,Rx,4,8,00,02,00,00,00,00,10,10,
26078544,00000200,false,Rx,4,3,02,00,00,00,00,00,00,00,
26175091,00000460,false,Rx,4,6,8B,10,0B,10,0B,18,00,00,
26176000,00000460,false,Rx,4,8,8B,0E,0B,0F,0B,17,0B,18,
26176913,00000460,false,Rx,4,8,8B,08,0B,09,0B,12,0B,12,
26177825,00000470,false,Rx,4,8,8B,12,0B,12,0B,13,0B,12,
26179179,000007E0,false,Rx,4,8,0D,0B,00,00,00,00,10,18,
26180103,00000460,false,Rx,4,8,8B,0F,0B,10,0B,1A,0B,1A,
26181107,000007E0,false,Rx,4,8,00,00,00,00,00,00,10,00,
26182030,00000470,false,Rx,4,8,8B,19,0B,1A,0B,1A,0B,1D,
26182953,00000470,false,Rx,4,8,80,02,0B,19,0B,1B,0B,19,
26183966,000007E0,false,Rx,4,8,00,00,00,00,00,00,10,00,
26185051,000007E0,false,Rx,4,8,0D,09,00,00,00,00,10,16,
26185902,00000470,false,Rx,4,6,8B,1A,0B,18,0B,1A,00,00,
26191738,00000463,false,Rx,4,8,8B,13,0B,13,0B,1E,0B,1E,
26192646,00000473,false,Rx,4,8,8B,1C,0B,1D,0B,1E,0B,1E,
26193640,000007E3,false,Rx,4,8,00,00,00,00,00,00,10,03,
26231343,00000468,false,Rx,4,8,8B,0A,0B,0B,0B,13,0B,12,
26232243,00000478,false,Rx,4,8,8B,13,0B,11,0B,12,0B,12,
26233227,000007E8,false,Rx,4,8,0C,EE,00,00,00,00,10,02,
26242000,0000046A,false,Rx,4,8,8B,0F,0B,0F,0B,1B,0B,1A,
26242888,0000047A,false,Rx,4,8,8B,17,0B,1A,0B,19,0B,17,
26243873,000007EA,false,Rx,4,8,00,00,00,00,00,00,10,0A,
26250800,0000046C,false,Rx,4,6,8B,12,0B,11,0B,1D,00,00,
26251596,0000047C,false,Rx,4,6,8B,1E,0B,1E,0B,1C,00,00,
26252610,000007EC,false,Rx,4,8,0D,0E,00,00,00,00,10,27,
26255367,0000046D,false,Rx,4,6,8B,0D,0B,0E,0B,17,00,00,
26256144,0000047D,false,Rx,4,6,8B,17,0B,18,0B,16,00,00,
26257169,000007ED,false,Rx,4,8,0D,08,00,00,00,00,10,22,
26260384,0000046E,false,Rx,4,6,8B,1B,0B,19,0B,28,00,00,
26261171,0000047E,false,Rx,4,6,8B,29,0B,27,0B,26,00,00,
26262216,000007EE,false,Rx,4,8,00,02,00,00,00,00,10,10,
27079612,00000200,false,Rx,4,3,02,00,00,00,00,00,00,00,
27176160,00000460,false,Rx,4,6,8B,10,0B,10,0B,19,00,00,
27177089,00000460,false,Rx,4,8,8B,0E,0B,0F,0B,18,0B,18,
27178001,00000460,false,Rx,4,8,8B,08,0B,08,0B,13,0B,13,
27178923,00000470,false,Rx,4,8,8B,12,0B,13,0B,12,0B,12,
27180277,000007E0,false,Rx,4,8,0D,0B,00,00,00,00,10,18,
27181170,00000460,false,Rx,4,8,8B,11,0B,0F,0B,1B,0B,1D,
27182184,000007E0,false,Rx,4,8,00,00,00,00,00,00,10,00,
27183098,00000470,false,Rx,4,8,8B,1A,0B,19,0B,1A,0B,1D,
27184021,00000470,false,Rx,4,8,80,02,0B,19,0B,1B,0B,18,
27185033,000007E0,false,Rx,4,8,00,00,00,00,00,00,10,00,
27186119,000007E0,false,Rx,4,8,0D,09,00,00,00,00,10,16,
27186959,00000470,false,Rx,4,6,8B,1A,0B,19,0B,1A,00,00,
27192825,00000463,false,Rx,4,8,8B,11,0B,14,0B,1D,0B,1F,
27193734,00000473,false,Rx,4,8,8B,1C,0B,1F,0B,1D,0B,1E,
27194729,000007E3,false,Rx,4,8,00,00,00,00,00,00,10,03,
27232411,00000468,false,Rx,4,8,8B,0A,0B,0B,0B,13,0B,13,
27233310,00000478,false,Rx,4,8,8B,13,0B,11,0B,13,0B,12,
27234294,000007E8,false,Rx,4,8,0C,EE,00,00,00,00,10,02,
27243077,0000046A,false,Rx,4,8,8B,10,0B,10,0B,19,0B,19,
27243976,0000047A,false,Rx,4,8,8B,19,0B,17,0B,19,0B,18,
27244960,000007EA,false,Rx,4,8,00,00,00,00,00,00,10,0A,
27251878,0000046C,false,Rx,4,6,8B,13,0B,11,0B,1D,00,00,
27252664,0000047C,false,Rx,4,6,8B,1D,0B,1E,0B,1C,00,00,
27253680,000007EC,false,Rx,4,8,0D,0E,00,00,00,00,10,27,
27256487,0000046D,false,Rx,4,6,8B,0E,0B,0D,0B,17,00,00,
27257264,0000047D,false,Rx,4,6,8B,17,0B,17,0B,16,00,00,
27258267,000007ED,false,Rx,4,8,0D,08,00,00,00,00,10,22,
27261443,0000046E,false,Rx,4,6,8B,1C,0B,19,0B,28,00,00,
27262220,0000047E,false,Rx,4,6,8B,29,0B,27,0B,26,00,00,
27263265,000007EE,false,Rx,4,8,00,02,00,00,00,00,10,10,
28080069,00000200,false,Rx,4,3,02,00,00,00,00,00,00,00,
28176573,00000460,false,Rx,4,6,8B,10,0B,10,0B,19,00,00,
28177522,00000460,false,Rx,4,8,8B,0E,0B,0F,0B,18,0B,18,
28178436,00000460,false,Rx,4,8,8B,08,0B,09,0B,12,0B,13,
28179347,00000470,false,Rx,4,8,8B,11,0B,13,0B,12,0B,11,
28180701,000007E0,false,Rx,4,8,0D,0B,00,00,00,00,10,18,
28181604,00000460,false,Rx,4,8,8B,10,0B,11,0B,1D,0B,1D,
28182618,000007E0,false,Rx,4,8,00,00,00,00,00,00,10,00,
28183531,00000470,false,Rx,4,8,8B,1A,0B,1B,0B,1A,0B,1A,
28184434,00000470,false,Rx,4,8,80,01,0B,19,0B,1B,0B,19,
28185447,000007E0,false,Rx,4,8,00,00,00,00,00,00,10,00,
28193274,00000463,false,Rx,4,8,8B,11,0B,14,0B,1D,0B,1F,
28194183,00000473,false,Rx,4,8,8B,1C,0B,1F,0B,1D,0B,1E,
28195176,000007E3,false,Rx,4,8,00,00,00,00,00,00,10,03,
28200106,000007E0,false,Rx,4,8,0D,09,00,00,00,00,10,16,
28200895,00000470,false,Rx,4,6,8B,1A,0B,1A,0B,1A,00,00,
28232869,00000468,false,Rx,4,8,8B,0A,0B,0B,0B,12,0B,13,
28233769,00000478,false,Rx,4,8,8B,13,0B,11,0B,13,0B,12,
28234752,000007E8,false,Rx,4,8,0C,EE,00,00,00,00,10,02,
28243544,0000046A,false,Rx,4,8,8B,0E,0B,12,0B,17,0B,1C,
28244434,0000047A,false,Rx,4,8,8B,17,0B,1B,0B,18,0B,1B,
28245417,000007EA,false,Rx,4,8,00,00,00,00,00,00,10,0A,
28252346,0000046C,false,Rx,4,6,8B,12,0B,11,0B,1D,00,00,
28253133,0000047C,false,Rx,4,6,8B,1D,0B,1E,0B,1C,00,00,
28254157,000007EC,false,Rx,4,8,0D,0E,00,00,00,00,10,27,
28256884,0000046D,false,Rx,4,6,8B,0D,0B,0D,0B,17,00,00,
28257670,0000047D,false,Rx,4,6,8B,17,0B,18,0B,16,00,00,
28258693,000007ED,false,Rx,4,8,0D,08,00,00,00,00,10,22,
28261910,0000046E,false,Rx,4,6,8B,1B,0B,19,0B,28,00,00,
28262706,0000047E,false,Rx,4,6,8B,2A,0B,27,0B,26,00,00,
28263732,000007EE,false,Rx,4,8,00,01,00,00,00,00,10,0F,
29083284,00000200,false,Rx,4,3,02,00,00,00,00,00,00,00,
29179809,00000460,false,Rx,4,6,8B,10,0B,10,0B,18,00,00,
29180575,00000470,false,Rx,4,6,8B,19,0B,19,0B,1A,00,00,
29181489,00000460,false,Rx,4,8,8B,08,0B,09,0B,13,0B,13,
29182389,00000460,false,Rx,4,8,8B,11,0B,10,0B,1B,0B,1D,
29183313,00000470,false,Rx,4,8,8B,12,0B,12,0B,12,0B,12,
29184223,00000470,false,Rx,4,8,8B,1A,0B,19,0B,1A,0B,1C,
29185985,00000460,false,Rx,4,8,8B,0E,0B,0F,0B,18,0B,18,
29187292,00000470,false,Rx,4,8,80,01,0B,1A,0B,1B,0B,19,
29193136,000007E0,false,Rx,4,8,0D,09,00,00,00,00,10,16,
29194136,000007E0,false,Rx,4,8,00,00,00,00,00,00,10,00,
29195238,000007E0,false,Rx,4,8,0D,0B,00,00,00,00,10,18,
29196484,00000463,false,Rx,4,8,8B,12,0B,12,0B,1E,0B,1E,
29197385,00000473,false,Rx,4,8,8B,1C,0B,1E,0B,1D,0B,1E,
29198380,000007E3,false,Rx,4,8,00,00,00,00,00,00,10,03,
29208891,000007E0,false,Rx,4,8,00,00,00,00,00,00,10,00,
29236071,00000468,false,Rx,4,8,8B,0A,0B,0B,0B,13,0B,13,
29236991,00000478,false,Rx,4,8,8B,13,0B,12,0B,13,0B,13,
29237974,000007E8,false,Rx,4,8,0C,EE,00,00,00,00,10,02,
29246759,0000046A,false,Rx,4,8,8B,10,0B,10,0B,18,0B,1A,
29247666,0000047A,false,Rx,4,8,8B,18,0B,1C,0B,17,0B,1B,
29248650,000007EA,false,Rx,4,8,00,00,00,00,00,00,10,0A,
29255537,0000046C,false,Rx,4,6,8B,13,0B,11,0B,1D,00,00,
29256334,0000047C,false,Rx,4,6,8B,1D,0B,1F,0B,1C,00,00,
29257347,000007EC,false,Rx,4,8,0D,0E,00,00,00,00,10,27,
29260105,0000046D,false,Rx,4,6,8B,0E,0B,0D,0B,17,00,00,
29260892,0000047D,false,Rx,4,6,8B,17,0B,17,0B,16,00,00,
29261896,000007ED,false,Rx,4,8,0D,08,00,00,00,00,10,22,
29265092,0000046E,false,Rx,4,6,8B,1B,0B,19,0B,28,00,00,
29265879,0000047E,false,Rx,4,6,8B,29,0B,27,0B,26,00,00,
29266912,000007EE,false,Rx,4,8,00,01,00,00,00,00,10,0F,
30086307,00000200,false,Rx,4,3,02,00,00,00,00,00,00,00,
30182853,00000460,false,Rx,4,6,8B,10,0B,10,0B,19,00,00,
30183771,00000460,false,Rx,4,8,8B,0E,0B,0F,0B,18,0B,19,
30185084,00000460,false,Rx,4,8,8B,12,0B,11,0B,1C,0B,1A,
30185988,00000460,false,Rx,4,8,8B,09,0B,09,0B,13,0B,12,
30186891,00000470,false,Rx,4,8,8B,19,0B,1B,0B,1B,0B,1B,
30187804,00000470,false,Rx,4,8,8B,12,0B,12,0B,13,0B,12,
30189562,000007E0,false,Rx,4,8,00,00,00,00,00,00,10,00,
30190537,000007E0,false,Rx,4,8,0D,09,00,00,00,00,10,16,
30191468,00000470,false,Rx,4,8,80,02,0B,1A,0B,1C,0B,19,
30192250,00000470,false,Rx,4,6,8B,1A,0B,19,0B,1A,00,00,
30193342,000007E0,false,Rx,4,8,0D,0B,00,00,00,00,10,18,
30199492,00000463,false,Rx,4,8,8B,11,0B,13,0B,1D,0B,1E,
30200411,00000473,false,Rx,4,8,8B,1E,0B,1E,0B,1F,0B,1D,
30201406,000007E3,false,Rx,4,8,00,00,00,00,00,00,10,03,
30239117,00000468,false,Rx,4,8,8B,0A,0B,0C,0B,13,0B,13,
30240016,00000478,false,Rx,4,8,8B,13,0B,11,0B,13,0B,13,
30241000,000007E8,false,Rx,4,8,0C,EE,00,00,00,00,10,02,
30249754,0000046A,false,Rx,4,8,8B,0D,0B,11,0B,19,0B,1A,
30250641,0000047A,false,Rx,4,8,8B,1B,0B,17,0B,1B,0B,18,
30251625,000007EA,false,Rx,4,8,00,00,00,00,00,00,10,0A,
30258572,0000046C,false,Rx,4,6,8B,13,0B,12,0B,1D,00,00,
30259359,0000047C,false,Rx,4,6,8B,1E,0B,1E,0B,1C,00,00,
30260383,000007EC,false,Rx,4,8,0D,0E,00,00,00,00,10,27,
30263151,0000046D,false,Rx,4,6,8B,0E,0B,0C,0B,16,00,00,
30263928,0000047D,false,Rx,4,6,8B,16,0B,17,0B,15,00,00,
30264931,000007ED,false,Rx,4,8,0D,08,00,00,00,00,10,22,
30268137,0000046E,false,Rx,4,6,8B,1A,0B,19,0B,28,00,00,
30268924,0000047E,false,Rx,4,6,8B,2A,0B,27,0B,26,00,00,
30269958,000007EE,false,Rx,4,8,00,02,00,00,00,00,10,10,
31090895,00000200,false,Rx,4,3,02,00,00,00,00,00,00,00,
31187429,00000460,false,Rx,4,6,8B,10,0B,0F,0B,19,00,00,
31188358,00000460,false,Rx,4,8,8B,0E,0B,0F,0B,18,0B,18,
31189661,00000460,false,Rx,4,8,8B,11,0B,11,0B,1D,0B,1C,
31190565,00000460,false,Rx,4,8,8B,08,0B,09,0B,13,0B,12,
31191467,00000470,false,Rx,4,8,8B,19,0B,18,0B,19,0B,1B,
31192381,00000470,false,Rx,4,8,8B,12,0B,13,0B,12,0B,11,
31193395,000007E0,false,Rx,4,8,00,00,00,00,00,00,10,00,
31194378,000007E0,false,Rx,4,8,0D,0B,00,00,00,00,10,18,
31195290,00000470,false,Rx,4,8,80,01,0B,19,0B,1B,0B,19,
31196373,000007E0,false,Rx,4,8,0D,09,00,00,00,00,10,16,
31197205,00000470,false,Rx,4,6,8B,19,0B,19,0B,1A,00,00,
31204110,00000463,false,Rx,4,8,8B,12,0B,12,0B,1F,0B,1D,
31205030,00000473,false,Rx,4,8,8B,1E,0B,1E,0B,1F,0B,1D,
31206024,000007E3,false,Rx,4,8,00,00,00,00,00,00,10,03,
31243694,00000468,false,Rx,4,8,8B,0A,0B,0B,0B,13,0B,12,
31244613,00000478,false,Rx,4,8,8B,14,0B,12,0B,13,0B,12,
31245596,000007E8,false,Rx,4,8,0C,EE,00,00,00,00,10,02,
31254339,0000046A,false,Rx,4,8,8B,0E,0B,0F,0B,19,0B,18,
31255238,0000047A,false,Rx,4,8,8B,1A,0B,19,0B,19,0B,1A,
31256222,000007EA,false,Rx,4,8,00,00,00,00,00,00,10,0A,
31263159,0000046C,false,Rx,4,6,8B,13,0B,12,0B,1C,00,00,
31263947,0000047C,false,Rx,4,6,8B,1D,0B,1E,0B,1C,00,00,
31264961,000007EC,false,Rx,4,8,0D,0E,00,00,00,00,10,27,
31267739,0000046D,false,Rx,4,6,8B,0E,0B,0D,0B,17,00,00,
31268515,0000047D,false,Rx,4,6,8B,17,0B,17,0B,16,00,00,
31269518,000007ED,false,Rx,4,8,0D,08,00,00,00,00,10,22,
31272735,0000046E,false,Rx,4,6,8B,1B,0B,19,0B,28,00,00,
31273521,0000047E,false,Rx,4,6,8B,29,0B,27,0B,26,00,00,
31274555,000007EE,false,Rx,4,8,00,01,00,00,00,00,10,0F,
32092677,00000200,false,Rx,4,3,02,00,00,00,00,00,00,00,
32189194,00000460,false,Rx,4,6,8B,11,0B,10,0B,18,00,00,
32190112,00000460,false,Rx,4,8,8B,0E,0B,0F,0B,17,0B,18,
32191466,00000460,false,Rx,4,8,8B,0F,0B,11,0B,1D,0B,1B,
32192389,00000460,false,Rx,4,8,8B,08,0B,0A,0B,12,0B,13,
32193300,00000470,false,Rx,4,8,8B,19,0B,1A,0B,1B,0B,1B,
32194214,00000470,false,Rx,4,8,8B,12,0B,13,0B,12,0B,12,
32195228,000007E0,false,Rx,4,8,00,00,00,00,00,00,10,00,
32196212,000007E0,false,Rx,4,8,0D,0B,00,00,00,00,10,18,
32197135,00000470,false,Rx,4,8,80,01,0B,19,0B,1C,0B,19,
32198229,000007E0,false,Rx,4,8,0D,09,00,00,00,00,10,16,
32199061,00000470,false,Rx,4,6,8B,1A,0B,19,0B,19,00,00,
32205886,00000463,false,Rx,4,8,8B,12,0B,13,0B,1E,0B,1E,
32206805,00000473,false,Rx,4,8,8B,1D,0B,1E,0B,1E,0B,1E,
32207789,000007E3,false,Rx,4,8,00,00,00,00,00,00,10,03,
32245478,00000468,false,Rx,4,8,8B,0A,0B,0A,0B,13,0B,14,
32246396,00000478,false,Rx,4,8,8B,13,0B,12,0B,13,0B,12,
32247371,000007E8,false,Rx,4,8,0C,EE,00,00,00,00,10,02,
32256135,0000046A,false,Rx,4,8,8B,0F,0B,12,0B,19,0B,19,
32257033,0000047A,false,Rx,4,8,8B,1B,0B,18,0B,19,0B,1A,
32258018,000007EA,false,Rx,4,8,00,00,00,00,00,00,10,0A,
32264925,0000046C,false,Rx,4,6,8B,13,0B,11,0B,1C,00,00,
32265722,0000047C,false,Rx,4,6,8B,1E,0B,1E,0B,1C,00,00,
32266746,000007EC,false,Rx,4,8,0D,0E,00,00,00,00,10,27,
32269534,0000046D,false,Rx,4,6,8B,0E,0B,0D,0B,17,00,00,
32270311,0000047D,false,Rx,4,6,8B,17,0B,17,0B,15,00,00,
32271325,000007ED,false,Rx,4,8,0D,08,00,00,00,00,10,22,
32274521,0000046E,false,Rx,4,6,8B,1B,0B,19,0B,28,00,00,
32275298,0000047E,false,Rx,4,6,8B,29,0B,27,0B,26,00,00,
32276341,000007EE,false,Rx,4,8,00,02,00,00,00,00,10,10,
33093429,00000200,false,Rx,4,3,02,00,00,00,00,00,00,00,
33189937,00000460,false,Rx,4,6,8B,10,0B,0F,0B,18,00,00,
33190866,00000460,false,Rx,4,8,8B,0E,0B,10,0B,17,0B,18,
33192170,00000460,false,Rx,4,8,8B,11,0B,11,0B,1B,0B,1A,
33193093,00000460,false,Rx,4,8,8B,07,0B,0A,0B,12,0B,13,
33194004,00000470,false,Rx,4,8,8B,1A,0B,1B,0B,1C,0B,1C,
33194918,00000470,false,Rx,4,8,8B,12,0B,13,0B,13,0B,12,
33195932,000007E0,false,Rx,4,8,00,00,00,00,00,00,10,00,
33196916,000007E0,false,Rx,4,8,0D,0B,00,00,00,00,10,18,
33197839,00000470,false,Rx,4,8,80,02,0B,19,0B,1B,0B,19,
33198933,000007E0,false,Rx,4,8,0D,09,00,00,00,00,10,16,
33199765,00000470,false,Rx,4,6,8B,1A,0B,19,0B,1A,00,00,
33206619,00000463,false,Rx,4,8,8B,13,0B,13,0B,1F,0B,1D,
33207548,00000473,false,Rx,4,8,8B,1E,0B,1D,0B,1F,0B,1C,
33208532,000007E3,false,Rx,4,8,00,00,00,00,00,00,10,03,
33246235,00000468,false,Rx,4,8,8B,0A,0B,0A,0B,13,0B,12,
33247123,00000478,false,Rx,4,8,8B,13,0B,11,0B,13,0B,12,
33248108,000007E8,false,Rx,4,8,0C,EE,00,00,00,00,10,02,
33256870,0000046A,false,Rx,4,8,8B,10,0B,0F,0B,19,0B,1B,
33257779,0000047A,false,Rx,4,8,8B,1B,0B,18,0B,1A,0B,19,
33258754,000007EA,false,Rx,4,8,00,00,00,00,00,00,10,0A,
33265691,0000046C,false,Rx,4,6,8B,13,0B,12,0B,1D,00,00,
33266489,0000047C,false,Rx,4,6,8B,1E,0B,1E,0B,1C,00,00,
33267492,000007EC,false,Rx,4,8,0D,0E,00,00,00,00,10,27,
33270259,0000046D,false,Rx,4,6,8B,0D,0B,0D,0B,17,00,00,
33271047,0000047D,false,Rx,4,6,8B,16,0B,17,0B,17,00,00,
33272070,000007ED,false,Rx,4,8,0D,08,00,00,00,00,10,22,
33275245,0000046E,false,Rx,4,6,8B,1B,0B,19,0B,28,00,00,
33276042,0000047E,false,Rx,4,6,8B,29,0B,26,0B,26,00,00,
33277066,000007EE,false,Rx,4,8,00,01,00,00,00,00,10,0F,
34098918,00000200,false,Rx,4,3,02,00,00,00,00,00,00,00,
34195443,00000460,false,Rx,4,6,8B,10,0B,10,0B,18,00,00,
34196362,00000460,false,Rx,4,8,8B,0E,0B,0F,0B,18,0B,19,
34197676,00000460,false,Rx,4,8,8B,11,0B,12,0B,1D,0B,1D,
34198589,00000460,false,Rx,4,8,8B,08,0B,09,0B,12,0B,13,
34199511,00000470,false,Rx,4,8,8B,1B,0B,1B,0B,1A,0B,1A,
34200414,00000470,false,Rx,4,8,8B,12,0B,13,0B,12,0B,12,
34201428,000007E0,false,Rx,4,8,00,00,00,00,00,00,10,00,
34202412,000007E0,false,Rx,4,8,0D,0B,00,00,00,00,10,18,
34203326,00000470,false,Rx,4,8,80,01,0B,19,0B,1B,0B,18,
34204409,000007E0,false,Rx,4,8,0D,09,00,00,00,00,10,16,
34205251,00000470,false,Rx,4,6,8B,1A,0B,19,0B,1A,00,00,
34212133,00000463,false,Rx,4,8,8B,12,0B,12,0B,1F,0B,1F,
34213052,00000473,false,Rx,4,8,8B,1C,0B,20,0B,1D,0B,1F,
34214046,000007E3,false,Rx,4,8,00,00,00,00,00,00,10,03,
34251711,00000468,false,Rx,4,8,8B,09,0B,0B,0B,13,0B,12,
34252619,00000478,false,Rx,4,8,8B,13,0B,12,0B,13,0B,12,
34253603,000007E8,false,Rx,4,8,0C,EE,00,00,00,00,10,02,
34262356,0000046A,false,Rx,4,8,8B,0F,0B,10,0B,19,0B,1A,
34263266,0000047A,false,Rx,4,8,8B,1A,0B,1A,0B,19,0B,1A,
34264260,000007EA,false,Rx,4,8,00,00,00,00,00,00,10,0A,
34271198,0000046C,false,Rx,4,6,8B,13,0B,12,0B,1C,00,00,
34271986,0000047C,false,Rx,4,6,8B,1E,0B,1D,0B,1C,00,00,
34273009,000007EC,false,Rx,4,8,0D,0E,00,00,00,00,10,27,
34275747,0000046D,false,Rx,4,6,8B,0E,0B,0D,0B,17,00,00,
34276533,0000047D,false,Rx,4,6,8B,17,0B,17,0B,16,00,00,
34277536,000007ED,false,Rx,4,8,0D,08,00,00,00,00,10,22,
34280752,0000046E,false,Rx,4,6,8B,1A,0B,18,0B,28,00,00,
34281528,0000047E,false,Rx,4,6,8B,29,0B,27,0B,26,00,00,
34282563,000007EE,false,Rx,4,8,00,01,00,00,00,00,10,0F,
35103601,00000200,false,Rx,4,3,02,00,00,00,00,00,00,00,
35200108,00000460,false,Rx,4,6,8B,11,0B,10,0B,18,00,00,
35201058,00000460,false,Rx,4,8,8B,0E,0B,10,0B,18,0B,18,
35202411,00000460,false,Rx,4,8,8B,0F,0B,11,0B,1D,0B,1C,
35203335,00000460,false,Rx,4,8,8B,08,0B,08,0B,12,0B,12,
35204237,00000470,false,Rx,4,8,8B,1A,0B,19,0B,1B,0B,1C,
35205160,00000470,false,Rx,4,8,8B,12,0B,12,0B,12,0B,12,
35206163,000007E0,false,Rx,4,8,00,00,00,00,00,00,10,00,
35207148,000007E0,false,Rx,4,8,0D,0B,00,00,00,00,10,18,
35208061,00000470,false,Rx,4,8,80,01,0B,19,0B,1B,0B,19,
35209144,000007E0,false,Rx,4,8,0D,09,00,00,00,00,10,16,
35209986,00000470,false,Rx,4,6,8B,1A,0B,19,0B,19,00,00,
35216789,00000463,false,Rx,4,8,8B,11,0B,14,0B,1D,0B,1E,
35217707,00000473,false,Rx,4,8,8B,1D,0B,1F,0B,1F,0B,1D,
35218702,000007E3,false,Rx,4,8,00,00,00,00,00,00,10,03,
35256397,00000468,false,Rx,4,8,8B,0A,0B,0B,0B,13,0B,13,
35257296,00000478,false,Rx,4,8,8B,13,0B,11,0B,13,0B,13,
35258280,000007E8,false,Rx,4,8,0C,EE,00,00,00,00,10,02,
35267043,0000046A,false,Rx,4,8,8B,0F,0B,11,0B,19,0B,1A,
35267952,0000047A,false,Rx,4,8,8B,1A,0B,1A,0B,19,0B,19,
35268935,000007EA,false,Rx,4,8,00,00,00,00,00,00,10,0A,
35275883,0000046C,false,Rx,4,6,8B,13,0B,11,0B,1C,00,00,
35276679,0000047C,false,Rx,4,6,8B,1E,0B,1E,0B,1C,00,00,
35277682,000007EC,false,Rx,4,8,0D,0E,00,00,00,00,10,27,
35280450,0000046D,false,Rx,4,6,8B,0E,0B,0E,0B,17,00,00,
35281227,0000047D,false,Rx,4,6,8B,17,0B,17,0B,15,00,00,
35282251,000007ED,false,Rx,4,8,0D,08,00,00,00,00,10,22,
35285427,0000046E,false,Rx,4,6,8B,1A,0B,18,0B,28,00,00,
35286224,0000047E,false,Rx,4,6,8B,2A,0B,27,0B,26,00,00,
35287238,000007EE,false,Rx,4,8,00,01,00,00,00,00,10,0F,
36104136,00000200,false,Rx,4,3,02,00,00,00,00,00,00,00,
36200641,00000460,false,Rx,4,6,8B,11,0B,0F,0B,19,00,00,
36201570,00000460,false,Rx,4,8,8B,0E,0B,0F,0B,18,0B,18,
36202925,00000460,false,Rx,4,8,8B,0F,0B,0E,0B,1A,0B,1C,
36203838,00000460,false,Rx,4,8,8B,08,0B,09,0B,12,0B,13,
36204750,00000470,false,Rx,4,8,8B,1B,0B,1C,0B,1B,0B,1C,
36205662,00000470,false,Rx,4,8,8B,12,0B,12,0B,12,0B,12,
36206676,000007E0,false,Rx,4,8,00,00,00,00,00,00,10,00,
36207660,000007E0,false,Rx,4,8,0D,0B,00,00,00,00,10,18,
36208584,00000470,false,Rx,4,8,80,02,0B,19,0B,1B,0B,19,
36217333,00000463,false,Rx,4,8,8B,12,0B,13,0B,1D,0B,1F,
36218252,00000473,false,Rx,4,8,8B,1C,0B,1F,0B,1E,0B,1E,
36219246,000007E3,false,Rx,4,8,00,00,00,00,00,00,10,03,
36223310,000007E0,false,Rx,4,8,0D,09,00,00,00,00,10,16,
36224078,00000470,false,Rx,4,6,8B,1A,0B,19,0B,1A,00,00,
36256933,00000468,false,Rx,4,8,8B,0A,0B,0B,0B,13,0B,12,
36257831,00000478,false,Rx,4,8,8B,13,0B,11,0B,13,0B,12,
36258815,000007E8,false,Rx,4,8,0C,EE,00,00,00,00,10,02,
36267576,0000046A,false,Rx,4,8,8B,0F,0B,0F,0B,19,0B,17,
36268475,0000047A,false,Rx,4,8,8B,1B,0B,17,0B,1A,0B,18,
36269459,000007EA,false,Rx,4,8,00,00,00,00,00,00,10,0A,
36276387,0000046C,false,Rx,4,6,8B,11,0B,12,0B,1C,00,00,
36277175,0000047C,false,Rx,4,6,8B,1D,0B,1D,0B,1C,00,00,
36278198,000007EC,false,Rx,4,8,0D,0E,00,00,00,00,10,27,
36280956,0000046D,false,Rx,4,6,8B,0D,0B,0D,0B,17,00,00,
36281744,0000047D,false,Rx,4,6,8B,17,0B,17,0B,16,00,00,
36282747,000007ED,false,Rx,4,8,0D,08,00,00,00,00,10,22,
36285962,0000046E,false,Rx,4,6,8B,1B,0B,19,0B,28,00,00,
36286759,0000047E,false,Rx,4,6,8B,2A,0B,27,0B,25,00,00,
36287794,000007EE,false,Rx,4,8,00,01,00,00,00,00,10,0F,
37108672,00000200,false,Rx,4,3,02,00,00,00,00,00,00,00,
37205218,00000460,false,Rx,4,6,8B,10,0B,10,0B,19,00,00,
37206127,00000460,false,Rx,4,8,8B,0E,0B,0F,0B,18,0B,19,
37207442,00000460,false,Rx,4,8,8B,11,0B,11,0B,1C,0B,1B,
37208355,00000460,false,Rx,4,8,8B,08,0B,09,0B,12,0B,13,
37209260,00000470,false,Rx,4,8,8B,19,0B,1B,0B,1C,0B,1B,
37210173,00000470,false,Rx,4,8,8B,12,0B,12,0B,12,0B,12,
37214539,000007E0,false,Rx,4,8,0D,09,00,00,00,00,10,16,
37215317,00000470,false,Rx,4,6,8B,1A,0B,19,0B,1A,00,00,
37216322,000007E0,false,Rx,4,8,00,00,00,00,00,00,10,00,
37221883,00000463,false,Rx,4,8,8B,11,0B,14,0B,1D,0B,1F,
37222802,00000473,false,Rx,4,8,8B,1D,0B,1F,0B,1F,0B,1D,
37223796,000007E3,false,Rx,4,8,00,00,00,00,00,00,10,03,
37230519,000007E0,false,Rx,4,8,00,00,00,00,00,00,10,00,
37231459,00000470,false,Rx,4,8,80,02,0B,19,0B,1C,0B,19,
37232794,000007E0,false,Rx,4,8,0D,0B,00,00,00,00,10,18,
37261483,00000468,false,Rx,4,8,8B,0A,0B,0B,0B,13,0B,13,
37262382,00000478,false,Rx,4,8,8B,13,0B,11,0B,13,0B,12,
37263365,000007E8,false,Rx,4,8,0C,EE,00,00,00,00,10,02,
37272149,0000046A,false,Rx,4,8,8B,0E,0B,12,0B,18,0B,1B,
37273069,0000047A,false,Rx,4,8,8B,1A,0B,18,0B,1A,0B,17,
37274052,000007EA,false,Rx,4,8,00,00,00,00,00,00,10,0A,
37280940,0000046C,false,Rx,4,6,8B,13,0B,12,0B,1C,00,00,
37281727,0000047C,false,Rx,4,6,8B,1D,0B,1E,0B,1C,00,00,
37282741,000007EC,false,Rx,4,8,0D,0E,00,00,00,00,10,27,
37285509,0000046D,false,Rx,4,6,8B,0E,0B,0D,0B,17,00,00,
37286306,0000047D,false,Rx,4,6,8B,16,0B,16,0B,16,00,00,
37287300,000007ED,false,Rx,4,8,0D,08,00,00,00,00,10,22,
37290495,0000046E,false,Rx,4,6,8B,1B,0B,19,0B,28,00,00,
37291292,0000047E,false,Rx,4,6,8B,2A,0B,27,0B,26,00,00,
37292317,000007EE,false,Rx,4,8,00,01,00,00,00,00,10,0F,
38108972,00000200,false,Rx,4,3,02,00,00,00,00,00,00,00,
38205489,00000460,false,Rx,4,6,8B,10,0B,10,0B,19,00,00,
38206418,00000460,false,Rx,4,8,8B,0E,0B,0F,0B,18,0B,18,
38207331,00000460,false,Rx,4,8,8B,08,0B,09,0B,12,0B,12,
38208232,00000470,false,Rx,4,8,8B,13,0B,13,0B,12,0B,12,
38209910,00000460,false,Rx,4,8,8B,10,0B,12,0B,1C,0B,1B,
38211226,00000470,false,Rx,4,8,8B,1A,0B,1C,0B,1A,0B,19,
38217123,000007E0,false,Rx,4,8,00,00,00,00,00,00,10,00,
38218133,000007E0,false,Rx,4,8,00,00,00,00,00,00,10,00,
38219057,00000470,false,Rx,4,8,80,02,0B,19,0B,1B,0B,19,
38220150,000007E0,false,Rx,4,8,0D,09,00,00,00,00,10,16,
38220993,00000470,false,Rx,4,6,8B,1A,0B,18,0B,1A,00,00,
38221974,000007E0,false,Rx,4,8,0D,0B,00,00,00,00,10,18,
38222897,00000463,false,Rx,4,8,8B,12,0B,13,0B,1F,0B,1C,
38223819,00000473,false,Rx,4,8,8B,1E,0B,1F,0B,1D,0B,1E,
38224813,000007E3,false,Rx,4,8,00,00,00,00,00,00,10,03,
38261761,00000468,false,Rx,4,8,8B,09,0B,0B,0B,13,0B,13,
38262659,00000478,false,Rx,4,8,8B,13,0B,11,0B,13,0B,13,
38263643,000007E8,false,Rx,4,8,0C,EE,00,00,00,00,10,02,
38272437,0000046A,false,Rx,4,8,8B,10,0B,0F,0B,18,0B,1B,
38273326,0000047A,false,Rx,4,8,8B,17,0B,1A,0B,19,0B,17,
38274309,000007EA,false,Rx,4,8,00,00,00,00,00,00,10,0A,
38281227,0000046C,false,Rx,4,6,8B,13,0B,11,0B,1C,00,00,
38282024,0000047C,false,Rx,4,6,8B,1E,0B,1E,0B,1C,00,00,
38283039,000007EC,false,Rx,4,8,0D,0E,00,00,00,00,10,27,
38285806,0000046D,false,Rx,4,6,8B,0E,0B,0D,0B,17,00,00,
38286592,0000047D,false,Rx,4,6,8B,17,0B,17,0B,16,00,00,
38287597,000007ED,false,Rx,4,8,0D,08,00,00,00,00,10,22,
38290803,0000046E,false,Rx,4,6,8B,1B,0B,19,0B,27,00,00,
38291589,0000047E,false,Rx,4,6,8B,2A,0B,27,0B,26,00,00,
38292613,000007EE,false,Rx,4,8,00,02,00,00,00,00,10,10,
39111377,00000200,false,Rx,4,3,02,00,00,00,00,00,00,00,
39207882,00000460,false,Rx,4,6,8B,11,0B,10,0B,19,00,00,
39208840,00000460,false,Rx,4,8,8B,0E,0B,10,0B,18,0B,18,
39209743,00000460,false,Rx,4,8,8B,09,0B,08,0B,12,0B,12,
39210754,000007E0,false,Rx,4,8,00,00,00,00,00,00,10,00,
39211686,00000470,false,Rx,4,8,80,01,0B,1A,0B,1B,0B,19,
39212708,00000460,false,Rx,4,8,8B,11,0B,12,0B,1C,0B,1D,
39213631,00000470,false,Rx,4,8,8B,12,0B,12,0B,12,0B,12,
39214543,00000470,false,Rx,4,8,8B,1A,0B,1A,0B,19,0B,19,
39215517,000007E0,false,Rx,4,8,0D,09,00,00,00,00,10,16,
39216519,000007E0,false,Rx,4,8,00,00,00,00,00,00,10,00,
39217290,00000470,false,Rx,4,6,8B,19,0B,19,0B,1B,00,00,
39218383,000007E0,false,Rx,4,8,0D,0B,00,00,00,00,10,18,
39224595,00000463,false,Rx,4,8,8B,11,0B,14,0B,1D,0B,20,
39225524,00000473,false,Rx,4,8,8B,1E,0B,1E,0B,1F,0B,1C,
39226517,000007E3,false,Rx,4,8,00,00,00,00,00,00,10,03,
39264183,00000468,false,Rx,4,8,8B,0A,0B,0B,0B,13,0B,12,
39265082,00000478,false,Rx,4,8,8B,14,0B,11,0B,13,0B,12,
39266067,000007E8,false,Rx,4,8,0C,EE,00,00,00,00,10,02,
39274830,0000046A,false,Rx,4,8,8B,0E,0B,11,0B,19,0B,18,
39275739,0000047A,false,Rx,4,8,8B,1B,0B,1A,0B,17,0B,1B,
39276723,000007EA,false,Rx,4,8,00,00,00,00,00,00,10,0A,
39283641,0000046C,false,Rx,4,6,8B,13,0B,11,0B,1D,00,00,
39284438,0000047C,false,Rx,4,6,8B,1E,0B,1E,0B,1C,00,00,
39285441,000007EC,false,Rx,4,8,0D,0E,00,00,00,00,10,27,
39288208,0000046D,false,Rx,4,6,8B,0D,0B,0E,0B,17,00,00,
39288997,0000047D,false,Rx,4,6,8B,17,0B,17,0B,16,00,00,
39290001,000007ED,false,Rx,4,8,0D,08,00,00,00,00,10,22,
39293216,0000046E,false,Rx,4,6,8B,1B,0B,18,0B,28,00,00,
39294013,0000047E,false,Rx,4,6,8B,2A,0B,27,0B,27,00,00,
39295027,000007EE,false,Rx,4,8,00,02,00,00,00,00,10,10,
40115937,00000200,false,Rx,4,3,02,00,00,00,00,00,00,00,
40212448,00000460,false,Rx,4,6,8B,10,0B,0F,0B,18,00,00,
40213377,00000460,false,Rx,4,8,8B,0E,0B,0E,0B,17,0B,18,
40214290,00000460,false,Rx,4,8,8B,08,0B,09,0B,12,0B,12,
40215293,000007E0,false,Rx,4,8,00,00,00,00,00,00,10,00,
40216226,00000470,false,Rx,4,8,80,02,0B,19,0B,1C,0B,19,
40217248,00000460,false,Rx,4,8,8B,10,0B,11,0B,1C,0B,1C,
40218171,00000470,false,Rx,4,8,8B,12,0B,12,0B,12,0B,11,
40219104,00000470,false,Rx,4,8,8B,1A,0B,1A,0B,1A,0B,1B,
40220078,000007E0,false,Rx,4,8,0D,09,00,00,00,00,10,16,
40221090,000007E0,false,Rx,4,8,00,00,00,00,00,00,10,00,
40221861,00000470,false,Rx,4,6,8B,1A,0B,19,0B,1A,00,00,
40222954,000007E0,false,Rx,4,8,0D,0B,00,00,00,00,10,18,
40229145,00000463,false,Rx,4,8,8B,11,0B,14,0B,1D,0B,1F,
40230064,00000473,false,Rx,4,8,8B,1C,0B,1F,0B,1D,0B,1D,
40231048,000007E3,false,Rx,4,8,00,00,00,00,00,00,10,03,
40268742,00000468,false,Rx,4,8,8B,0A,0B,0B,0B,13,0B,12,
40269660,00000478,false,Rx,4,8,8B,13,0B,11,0B,14,0B,13,
40270645,000007E8,false,Rx,4,8,0C,EE,00,00,00,00,10,02,
40279397,0000046A,false,Rx,4,8,8B,10,0B,0E,0B,19,0B,1C,
40280306,0000047A,false,Rx,4,8,8B,1A,0B,17,0B,1A,0B,1B,
40281290,000007EA,false,Rx,4,8,00,00,00,00,00,00,10,0A,
40288198,0000046C,false,Rx,4,6,8B,13,0B,11,0B,1D,00,00,
40288995,0000047C,false,Rx,4,6,8B,1E,0B,1E,0B,1C,00,00,
40290009,000007EC,false,Rx,4,8,0D,0E,00,00,00,00,10,27,
40292766,0000046D,false,Rx,4,6,8B,0D,0B,0D,0B,17,00,00,
40293553,0000047D,false,Rx,4,6,8B,17,0B,17,0B,16,00,00,
40294567,000007ED,false,Rx,4,8,0D,08,00,00,00,00,10,22,
40297794,0000046E,false,Rx,4,6,8B,1B,0B,18,0B,27,00,00,
40298580,0000047E,false,Rx,4,6,8B,2A,0B,27,0B,26,00,00,
40299604,000007EE,false,Rx,4,8,00,01,00,00,00,00,10,0F,
41119314,00000200,false,Rx,4,3,02,00,00,00,00,00,00,00,
41215839,00000460,false,Rx,4,6,8B,11,0B,10,0B,18,00,00,
41216768,00000460,false,Rx,4,8,8B,0E,0B,0F,0B,18,0B,18,
41217680,00000460,false,Rx,4,8,8B,09,0B,09,0B,12,0B,13,
41218682,000007E0,false,Rx,4,8,00,00,00,00,00,00,10,00,
41219595,00000470,false,Rx,4,8,80,01,0B,19,0B,1B,0B,19,
41220628,00000470,false,Rx,4,8,8B,12,0B,12,0B,12,0B,12,
41221602,000007E0,false,Rx,4,8,0D,09,00,00,00,00,10,16,
41222583,000007E0,false,Rx,4,8,0D,0B,00,00,00,00,10,18,
41223365,00000470,false,Rx,4,6,8B,1A,0B,19,0B,1A,00,00,
41232522,00000463,false,Rx,4,8,8B,12,0B,13,0B,1C,0B,1E,
41233431,00000473,false,Rx,4,8,8B,1D,0B,1E,0B,1F,0B,1C,
41234426,000007E3,false,Rx,4,8,00,00,00,00,00,00,10,03,
41237632,00000460,false,Rx,4,8,8B,10,0B,11,0B,1C,0B,1C,
41238551,00000470,false,Rx,4,8,8B,1A,0B,18,0B,1A,0B,1C,
41239565,000007E0,false,Rx,4,8,00,00,00,00,00,00,10,00,
41272134,00000468,false,Rx,4,8,8B,0A,0B,0C,0B,13,0B,13,
41273023,00000478,false,Rx,4,8,8B,15,0B,11,0B,13,0B,12,
41274007,000007E8,false,Rx,4,8,0C,EE,00,00,00,00,10,02,
41282770,0000046A,false,Rx,4,8,8B,10,0B,12,0B,19,0B,18,
41283678,0000047A,false,Rx,4,8,8B,1A,0B,1B,0B,19,0B,18,
41284661,000007EA,false,Rx,4,8,00,00,00,00,00,00,10,0A,
41291589,0000046C,false,Rx,4,6,8B,13,0B,12,0B,1C,00,00,
41292366,0000047C,false,Rx,4,6,8B,1D,0B,1E,0B,1C,00,00,
41293390,000007EC,false,Rx,4,8,0D,0E,00,00,00,00,10,27,
41296168,0000046D,false,Rx,4,6,8B,0E,0B,0C,0B,16,00,00,
41296956,0000047D,false,Rx,4,6,8B,17,0B,17,0B,16,00,00,
41297959,000007ED,false,Rx,4,8,0D,08,00,00,00,00,10,22,
41301175,0000046E,false,Rx,4,6,8B,1A,0B,1A,0B,28,00,00,
41301952,0000047E,false,Rx,4,6,8B,29,0B,26,0B,26,00,00,
41302976,000007EE,false,Rx,4,8,00,01,00,00,00,00,10,0F,
42122397,00000200,false,Rx,4,3,02,00,00,00,00,00,00,00,
42218923,00000460,false,Rx,4,6,8B,10,0B,10,0B,18,00,00,
42219831,00000460,false,Rx,4,8,8B,0E,0B,0F,0B,17,0B,18,
42221154,00000460,false,Rx,4,8,8B,10,0B,0F,0B,19,0B,1A,
42222058,00000460,false,Rx,4,8,8B,08,0B,09,0B,12,0B,12,
42222989,00000470,false,Rx,4,8,8B,1A,0B,1B,0B,1C,0B,1C,
42223902,00000470,false,Rx,4,8,8B,12,0B,12,0B,12,0B,11,
42224906,000007E0,false,Rx,4,8,00,00,00,00,00,00,10,00,
42225840,00000470,false,Rx,4,8,80,02,0B,1A,0B,1B,0B,19,
42226824,000007E0,false,Rx,4,8,0D,0B,00,00,00,00,10,18,
42227907,000007E0,false,Rx,4,8,0D,09,00,00,00,00,10,16,
42228749,00000470,false,Rx,4,6,8B,1A,0B,19,0B,1A,00,00,
42235602,00000463,false,Rx,4,8,8B,12,0B,13,0B,1D,0B,1F,
42236502,00000473,false,Rx,4,8,8B,1C,0B,20,0B,1D,0B,1E,
42237497,000007E3,false,Rx,4,8,00,00,00,00,00,00,10,03,
42275193,00000468,false,Rx,4,8,8B,09,0B,0B,0B,13,0B,12,
42276091,00000478,false,Rx,4,8,8B,11,0B,11,0B,13,0B,13,
42277075,000007E8,false,Rx,4,8,0C,EE,00,00,00,00,10,02,
42285848,0000046A,false,Rx,4,8,8B,0F,0B,10,0B,19,0B,19,
42286747,0000047A,false,Rx,4,8,8B,1A,0B,19,0B,19,0B,19,
42287731,000007EA,false,Rx,4,8,00,00,00,00,00,00,10,0A,
42294657,0000046C,false,Rx,4,6,8B,11,0B,12,0B,1D,00,00,
42295455,0000047C,false,Rx,4,6,8B,1E,0B,1E,0B,1C,00,00,
42296468,000007EC,false,Rx,4,8,0D,0E,00,00,00,00,10,27,
42299228,0000046D,false,Rx,4,6,8B,0E,0B,0D,0B,17,00,00,
42300015,0000047D,false,Rx,4,6,8B,17,0B,17,0B,16,00,00,
42301018,000007ED,false,Rx,4,8,0D,08,00,00,00,00,10,22,
42304224,0000046E,false,Rx,4,6,8B,1B,0B,18,0B,28,00,00,
42305022,0000047E,false,Rx,4,6,8B,29,0B,28,0B,26,00,00,
42306036,000007EE,false,Rx,4,8,00,01,00,00,00,00,10,0F,
43127284,00000200,false,Rx,4,3,02,00,00,00,00,00,00,00,
43223809,00000460,false,Rx,4,6,8B,10,0B,10,0B,18,00,00,
43224738,00000460,false,Rx,4,8,8B,0E,0B,0F,0B,18,0B,18,
43226083,00000460,false,Rx,4,8,8B,0F,0B,10,0B,1D,0B,1C,
43226996,00000460,false,Rx,4,8,8B,09,0B,09,0B,13,0B,12,
43227907,00000470,false,Rx,4,8,8B,19,0B,1A,0B,1C,0B,1B,
43228830,00000470,false,Rx,4,8,8B,12,0B,12,0B,13,0B,11,
43229835,000007E0,false,Rx,4,8,00,00,00,00,00,00,10,00,
43230759,00000470,false,Rx,4,8,80,02,0B,19,0B,1B,0B,18,
43231742,000007E0,false,Rx,4,8,0D,0B,00,00,00,00,10,18,
43240484,00000463,false,Rx,4,8,8B,11,0B,14,0B,1D,0B,1F,
43241393,00000473,false,Rx,4,8,8B,1C,0B,20,0B,1D,0B,1D,
43242387,000007E3,false,Rx,4,8,00,00,00,00,00,00,10,03,
43246450,000007E0,false,Rx,4,8,0D,09,00,00,00,00,10,16,
43247218,00000470,false,Rx,4,6,8B,1A,0B,19,0B,1A,00,00,
43280070,00000468,false,Rx,4,8,8B,09,0B,0B,0B,13,0B,13,
43280969,00000478,false,Rx,4,8,8B,13,0B,11,0B,13,0B,12,
43281953,000007E8,false,Rx,4,8,0C,EE,00,00,00,00,10,02,
43290736,0000046A,false,Rx,4,8,8B,0D,0B,13,0B,17,0B,1B,
43291624,0000047A,false,Rx,4,8,8B,19,0B,1A,0B,19,0B,19,
43292609,000007EA,false,Rx,4,8,00,00,00,00,00,00,10,0A,
43299577,0000046C,false,Rx,4,6,8B,13,0B,12,0B,1C,00,00,
43300354,0000047C,false,Rx,4,6,8B,1E,0B,1D,0B,1C,00,00,
43301367,000007EC,false,Rx,4,8,0D,0E,00,00,00,00,10,27,
43304115,0000046D,false,Rx,4,6,8B,0E,0B,0D,0B,17,00,00,
43304902,0000047D,false,Rx,4,6,8B,17,0B,17,0B,16,00,00,
43305895,000007ED,false,Rx,4,8,0D,08,00,00,00,00,10,22,
43309110,0000046E,false,Rx,4,6,8B,1B,0B,18,0B,28,00,00,
43309907,0000047E,false,Rx,4,6,8B,29,0B,28,0B,26,00,00,
43310921,000007EE,false,Rx,4,8,00,01,00,00,00,00,10,0F,
44131638,00000200,false,Rx,4,3,02,00,00,00,00,00,00,00,
44228142,00000460,false,Rx,4,6,8B,10,0B,10,0B,19,00,00,
44229050,00000460,false,Rx,4,8,8B,0E,0B,0F,0B,18,0B,19,
44230405,00000460,false,Rx,4,8,8B,0F,0B,10,0B,1D,0B,1B,
44231308,00000460,false,Rx,4,8,8B,08,0B,09,0B,13,0B,12,
44232219,00000470,false,Rx,4,8,8B,19,0B,1B,0B,1B,0B,1A,
44233132,00000470,false,Rx,4,8,8B,12,0B,12,0B,12,0B,12,
44240164,000007E0,false,Rx,4,8,00,00,00,00,00,00,10,00,
44241165,000007E0,false,Rx,4,8,00,00,00,00,00,00,10,00,
44242098,00000470,false,Rx,4,8,80,02,0B,1A,0B,1C,0B,18,
44243191,000007E0,false,Rx,4,8,0D,09,00,00,00,00,10,16,
44244033,00000470,false,Rx,4,6,8B,1A,0B,19,0B,1A,00,00,
44244935,00000463,false,Rx,4,8,8B,11,0B,14,0B,1D,0B,1F,
44245858,00000473,false,Rx,4,8,8B,1C,0B,1F,0B,1E,0B,1D,
44246849,000007E3,false,Rx,4,8,00,00,00,00,00,00,10,03,
44257507,000007E0,false,Rx,4,8,0D,0B,00,00,00,00,10,18,
44284426,00000468,false,Rx,4,8,8B,0A,0B,0B,0B,13,0B,13,
44285325,00000478,false,Rx,4,8,8B,13,0B,11,0B,13,0B,12,
44286309,000007E8,false,Rx,4,8,0C,EE,00,00,00,00,10,02,
44295093,0000046A,false,Rx,4,8,8B,0F,0B,10,0B,19,0B,19,
44296012,0000047A,false,Rx,4,8,8B,1A,0B,18,0B,1A,0B,17,
44296996,000007EA,false,Rx,4,8,00,00,00,00,00,00,10,0A,
44303893,0000046C,false,Rx,4,6,8B,13,0B,12,0B,1C,00,00,
44304679,0000047C,false,Rx,4,6,8B,1D,0B,1E,0B,1C,00,00,
44305704,000007EC,false,Rx,4,8,0D,0E,00,00,00,00,10,27,
44308471,0000046D,false,Rx,4,6,8B,0E,0B,0D,0B,17,00,00,
44309248,0000047D,false,Rx,4,6,8B,17,0B,17,0B,16,00,00,
44310263,000007ED,false,Rx,4,8,0D,08,00,00,00,00,10,22,
44313468,0000046E,false,Rx,4,6,8B,1B,0B,18,0B,28,00,00,
44314254,0000047E,false,Rx,4,6,8B,2A,0B,27,0B,26,00,00,
44315278,000007EE,false,Rx,4,8,00,02,00,00,00,00,10,10,
45133784,00000200,false,Rx,4,3,02,00,00,00,00,00,00,00,
45230287,00000460,false,Rx,4,6,8B,11,0B,10,0B,19,00,00,
45231225,00000460,false,Rx,4,8,8B,0E,0B,0F,0B,17,0B,18,
45232138,00000460,false,Rx,4,8,8B,08,0B,09,0B,12,0B,12,
45233059,00000470,false,Rx,4,8,8B,12,0B,12,0B,12,0B,12,
45234414,000007E0,false,Rx,4,8,0D,0B,00,00,00,00,10,18,
45235317,00000460,false,Rx,4,8,8B,0F,0B,10,0B,1D,0B,1D,
45236330,000007E0,false,Rx,4,8,00,00,00,00,00,00,10,00,
45237235,00000470,false,Rx,4,8,8B,1B,0B,1A,0B,1A,0B,1A,
45238149,00000470,false,Rx,4,8,80,01,0B,19,0B,1B,0B,18,
45239161,000007E0,false,Rx,4,8,00,00,00,00,00,00,10,00,
45240246,000007E0,false,Rx,4,8,0D,09,00,00,00,00,10,16,
45241087,00000470,false,Rx,4,6,8B,1A,0B,19,0B,1A,00,00,
45246983,00000463,false,Rx,4,8,8B,12,0B,13,0B,1E,0B,1D,
45247902,00000473,false,Rx,4,8,8B,1E,0B,1E,0B,1E,0B,1F,
45248897,000007E3,false,Rx,4,8,00,00,00,00,00,00,10,03,
45286580,00000468,false,Rx,4,8,8B,0A,0B,0B,0B,13,0B,12,
45287479,00000478,false,Rx,4,8,8B,13,0B,11,0B,13,0B,12,
45288463,000007E8,false,Rx,4,8,0C,EE,00,00,00,00,10,02,
45297247,0000046A,false,Rx,4,8,8B,0D,0B,12,0B,19,0B,1A,
45298145,0000047A,false,Rx,4,8,8B,1A,0B,19,0B,19,0B,19,
45299129,000007EA,false,Rx,4,8,00,00,00,00,00,00,10,0A,
45306066,0000046C,false,Rx,4,6,8B,12,0B,12,0B,1C,00,00,
45306843,0000047C,false,Rx,4,6,8B,1D,0B,1D,0B,1C,00,00,
45307858,000007EC,false,Rx,4,8,0D,0E,00,00,00,00,10,27,
45310644,0000046D,false,Rx,4,6,8B,0E,0B,0D,0B,17,00,00,
45311421,0000047D,false,Rx,4,6,8B,16,0B,17,0B,15,00,00,
45312426,000007ED,false,Rx,4,8,0D,08,00,00,00,00,10,22,
45315621,0000046E,false,Rx,4,6,8B,1B,0B,18,0B,28,00,00,
45316408,0000047E,false,Rx,4,6,8B,2A,0B,27,0B,26,00,00,
45317421,000007EE,false,Rx,4,8,00,01,00,00,00,00,10,0F,
46134399,00000200,false,Rx,4,3,02,00,00,00,00,00,00,00,
46230933,00000460,false,Rx,4,6,8B,11,0B,10,0B,18,00,00,
46231862,00000460,false,Rx,4,8,8B,0E,0B,0F,0B,18,0B,18,
46232775,00000460,false,Rx,4,8,8B,08,0B,09,0B,12,0B,12,
46233685,00000470,false,Rx,4,8,8B,12,0B,13,0B,12,0B,12,
46235051,000007E0,false,Rx,4,8,0D,0B,00,00,00,00,10,18,
46235973,00000460,false,Rx,4,8,8B,10,0B,10,0B,1C,0B,1B,
46236987,000007E0,false,Rx,4,8,00,00,00,00,00,00,10,00,
46237891,00000470,false,Rx,4,8,8B,19,0B,19,0B,19,0B,19,
46238815,00000470,false,Rx,4,8,80,01,0B,1A,0B,1B,0B,19,
46239827,000007E0,false,Rx,4,8,00,00,00,00,00,00,10,00,
46240911,000007E0,false,Rx,4,8,0D,09,00,00,00,00,10,16,
46241744,00000470,false,Rx,4,6,8B,19,0B,19,0B,1A,00,00,
46247589,00000463,false,Rx,4,8,8B,13,0B,12,0B,1E,0B,1D,
46248498,00000473,false,Rx,4,8,8B,1C,0B,20,0B,1D,0B,1E,
46249482,000007E3,false,Rx,4,8,00,00,00,00,00,00,10,03,
46287190,00000468,false,Rx,4,8,8B,0A,0B,0B,0B,13,0B,12,
46288089,00000478,false,Rx,4,8,8B,13,0B,11,0B,13,0B,13,
46289072,000007E8,false,Rx,4,8,0C,EE,00,00,00,00,10,02,
46297846,0000046A,false,Rx,4,8,8B,10,0B,10,0B,19,0B,1A,
46298765,0000047A,false,Rx,4,8,8B,18,0B,1B,0B,18,0B,1A,
46299748,000007EA,false,Rx,4,8,00,00,00,00,00,00,10,0A,
46306675,0000046C,false,Rx,4,6,8B,13,0B,12,0B,1C,00,00,
46307462,0000047C,false,Rx,4,6,8B,1D,0B,1E,0B,1C,00,00,
46308485,000007EC,false,Rx,4,8,0D,0E,00,00,00,00,10,27,
46311222,0000046D,false,Rx,4,6,8B,0E,0B,0E,0B,17,00,00,
46312009,0000047D,false,Rx,4,6,8B,17,0B,17,0B,16,00,00,
46313013,000007ED,false,Rx,4,8,0D,08,00,00,00,00,10,22,
46316219,0000046E,false,Rx,4,6,8B,1B,0B,19,0B,28,00,00,
46317016,0000047E,false,Rx,4,6,8B,2A,0B,27,0B,27,00,00,
46318040,000007EE,false,Rx,4,8,00,02,00,00,00,00,10,10,
47139888,00000200,false,Rx,4,3,02,00,00,00,00,00,00,00,
47236432,00000460,false,Rx,4,6,8B,10,0B,10,0B,19,00,00,
47237360,00000460,false,Rx,4,8,8B,0E,0B,0F,0B,18,0B,18,
47238273,00000460,false,Rx,4,8,8B,08,0B,09,0B,12,0B,12,
47239194,00000470,false,Rx,4,8,8B,12,0B,12,0B,13,0B,11,
47240548,000007E0,false,Rx,4,8,0D,0B,00,00,00,00,10,18,
47241482,00000460,false,Rx,4,8,8B,0F,0B,12,0B,1C,0B,1A,
47242486,000007E0,false,Rx,4,8,00,00,00,00,00,00,10,00,
47243389,00000470,false,Rx,4,8,8B,19,0B,1B,0B,1B,0B,1A,
47244323,00000470,false,Rx,4,8,80,01,0B,19,0B,1C,0B,18,
47245325,000007E0,false,Rx,4,8,00,00,00,00,00,00,10,00,
47246421,000007E0,false,Rx,4,8,0D,09,00,00,00,00,10,16,
47247251,00000470,false,Rx,4,6,8B,19,0B,19,0B,1A,00,00,
47253086,00000463,false,Rx,4,8,8B,12,0B,13,0B,1D,0B,1F,
47253997,00000473,false,Rx,4,8,8B,1C,0B,20,0B,1D,0B,1E,
47254980,000007E3,false,Rx,4,8,00,00,00,00,00,00,10,03,
47292695,00000468,false,Rx,4,8,8B,0A,0B,0B,0B,13,0B,12,
47293594,00000478,false,Rx,4,8,8B,13,0B,11,0B,13,0B,12,
47294577,000007E8,false,Rx,4,8,0C,EE,00,00,00,00,10,02,
47303351,0000046A,false,Rx,4,8,8B,10,0B,10,0B,18,0B,1C,
47304250,0000047A,false,Rx,4,8,8B,19,0B,19,0B,1A,0B,17,
47305233,000007EA,false,Rx,4,8,00,00,00,00,00,00,10,0A,
47312151,0000046C,false,Rx,4,6,8B,13,0B,11,0B,1C,00,00,
47312938,0000047C,false,Rx,4,6,8B,1E,0B,1D,0B,1C,00,00,
47313953,000007EC,false,Rx,4,8,0D,0E,00,00,00,00,10,27,
47316721,0000046D,false,Rx,4,6,8B,0D,0B,0E,0B,17,00,00,
47317497,0000047D,false,Rx,4,6,8B,17,0B,17,0B,15,00,00,
47318512,000007ED,false,Rx,4,8,0D,08,00,00,00,00,10,22,
47321708,0000046E,false,Rx,4,6,8B,1B,0B,19,0B,28,00,00,
47322495,0000047E,false,Rx,4,6,8B,29,0B,27,0B,26,00,00,
47323539,000007EE,false,Rx,4,8,00,02,00,00,00,00,10,10,
48142565,00000200,false,Rx,4,3,02,00,00,00,00,00,00,00,
48239089,00000460,false,Rx,4,6,8B,10,0B,10,0B,18,00,00,
48239987,00000460,false,Rx,4,8,8B,0E,0B,0F,0B,17,0B,18,
48240911,00000460,false,Rx,4,8,8B,09,0B,08,0B,12,0B,13,
48241833,00000470,false,Rx,4,8,8B,12,0B,12,0B,12,0B,12,
48243197,000007E0,false,Rx,4,8,0D,0B,00,00,00,00,10,18,
48244100,00000460,false,Rx,4,8,8B,10,0B,11,0B,1C,0B,1B,
48245114,000007E0,false,Rx,4,8,00,00,00,00,00,00,10,00,
48246027,00000470,false,Rx,4,8,8B,18,0B,18,0B,19,0B,1B,
48246961,00000470,false,Rx,4,8,80,02,0B,19,0B,1C,0B,19,
48247963,000007E0,false,Rx,4,8,00,00,00,00,00,00,10,00,
48255748,00000463,false,Rx,4,8,8B,11,0B,14,0B,1D,0B,1E,
48256686,00000473,false,Rx,4,8,8B,1C,0B,1F,0B,1F,0B,1C,
48257680,000007E3,false,Rx,4,8,00,00,00,00,00,00,10,03,
48262172,000007E0,false,Rx,4,8,0D,09,00,00,00,00,10,16,
48262949,00000470,false,Rx,4,6,8B,1A,0B,19,0B,1A,00,00,
48295365,00000468,false,Rx,4,8,8B,0A,0B,0B,0B,13,0B,13,
48296264,00000478,false,Rx,4,8,8B,13,0B,11,0B,13,0B,13,
48297247,000007E8,false,Rx,4,8,0C,EE,00,00,00,00,10,02,
48306000,0000046A,false,Rx,4,8,8B,0F,0B,13,0B,19,0B,19,
48306900,0000047A,false,Rx,4,8,8B,1B,0B,1A,0B,18,0B,1A,
48307883,000007EA,false,Rx,4,8,00,00,00,00,00,00,10,0A,
48314841,0000046C,false,Rx,4,6,8B,13,0B,11,0B,1B,00,00,
48315627,0000047C,false,Rx,4,6,8B,1E,0B,1D,0B,1C,00,00,
48316650,000007EC,false,Rx,4,8,0D,0E,00,00,00,00,10,27,
48319408,0000046D,false,Rx,4,6,8B,0E,0B,0E,0B,17,00,00,
48320195,0000047D,false,Rx,4,6,8B,16,0B,17,0B,16,00,00,
48321208,000007ED,false,Rx,4,8,0D,08,00,00,00,00,10,22,
48324384,0000046E,false,Rx,4,6,8B,1B,0B,19,0B,28,00,00,
48325181,0000047E,false,Rx,4,6,8B,2A,0B,27,0B,26,00,00,
48326216,000007EE,false,Rx,4,8,00,02,00,00,00,00,10,10,
49146617,00000200,false,Rx,4,3,02,00,00,00,00,00,00,00,
49243131,00000460,false,Rx,4,6,8B,11,0B,10,0B,18,00,00,
49243898,00000470,false,Rx,4,6,8B,19,0B,19,0B,1A,00,00,
49244810,00000460,false,Rx,4,8,8B,08,0B,09,0B,12,0B,12,
49245721,00000460,false,Rx,4,8,8B,10,0B,11,0B,1C,0B,1B,
49246643,00000470,false,Rx,4,8,8B,12,0B,12,0B,12,0B,12,
49247544,00000470,false,Rx,4,8,8B,1B,0B,1C,0B,19,0B,1A,
49249314,00000460,false,Rx,4,8,8B,0E,0B,0F,0B,18,0B,18,
49250621,00000470,false,Rx,4,8,80,02,0B,19,0B,1B,0B,19,
49256170,000007E0,false,Rx,4,8,0D,09,00,00,00,00,10,16,
49257150,000007E0,false,Rx,4,8,0D,0B,00,00,00,00,10,18,
49259821,00000463,false,Rx,4,8,8B,11,0B,13,0B,1E,0B,1D,
49260731,00000473,false,Rx,4,8,8B,1E,0B,1E,0B,20,0B,1D,
49261725,000007E3,false,Rx,4,8,00,00,00,00,00,00,10,03,
49271176,000007E0,false,Rx,4,8,00,00,00,00,00,00,10,00,
49272186,000007E0,false,Rx,4,8,00,00,00,00,00,00,10,00,
49299423,00000468,false,Rx,4,8,8B,0A,0B,0B,0B,13,0B,12,
49300322,00000478,false,Rx,4,8,8B,13,0B,11,0B,13,0B,12,
49301306,000007E8,false,Rx,4,8,0C,EE,00,00,00,00,10,02,
49310070,0000046A,false,Rx,4,8,8B,0F,0B,0E,0B,19,0B,1C,
49310979,0000047A,false,Rx,4,8,8B,1A,0B,18,0B,19,0B,1B,
49311963,000007EA,false,Rx,4,8,00,00,00,00,00,00,10,0A,
49318881,0000046C,false,Rx,4,6,8B,11,0B,12,0B,1C,00,00,
49319687,0000047C,false,Rx,4,6,8B,1F,0B,1E,0B,1C,00,00,
49320682,000007EC,false,Rx,4,8,0D,0E,00,00,00,00,10,27,
49323448,0000046D,false,Rx,4,6,8B,0E,0B,0D,0B,17,00,00,
49324236,0000047D,false,Rx,4,6,8B,17,0B,17,0B,16,00,00,
49325240,000007ED,false,Rx,4,8,0D,08,00,00,00,00,10,22,
49328435,0000046E,false,Rx,4,6,8B,1B,0B,19,0B,28,00,00,
49329232,0000047E,false,Rx,4,6,8B,2A,0B,27,0B,26,00,00,
49330266,000007EE,false,Rx,4,8,00,02,00,00,00,00,10,10,
50151249,00000200,false,Rx,4,3,02,00,00,00,00,00,00,00,
50247764,00000460,false,Rx,4,6,8B,11,0B,0F,0B,19,00,00,
50248692,00000460,false,Rx,4,8,8B,0E,0B,0E,0B,17,0B,18,
50250017,00000460,false,Rx,4,8,8B,12,0B,11,0B,1B,0B,1B,
50250930,00000460,false,Rx,4,8,8B,08,0B,09,0B,12,0B,12,
50251841,00000470,false,Rx,4,8,8B,18,0B,19,0B,1A,0B,1C,
50252754,00000470,false,Rx,4,8,8B,12,0B,11,0B,12,0B,12,
50254890,000007E0,false,Rx,4,8,00,00,00,00,00,00,10,00,
50255813,00000470,false,Rx,4,8,80,02,0B,19,0B,1B,0B,19,
50256794,000007E0,false,Rx,4,8,0D,09,00,00,00,00,10,16,
50257626,00000470,false,Rx,4,6,8B,19,0B,19,0B,1A,00,00,
50258608,000007E0,false,Rx,4,8,0D,0B,00,00,00,00,10,18,
50264474,00000463,false,Rx,4,8,8B,14,0B,12,0B,1F,0B,1E,
50265384,00000473,false,Rx,4,8,8B,1C,0B,1F,0B,1D,0B,1D,
50266378,000007E3,false,Rx,4,8,00,00,00,00,00,00,10,03,
50304044,00000468,false,Rx,4,8,8B,0A,0B,0B,0B,13,0B,13,
50304943,00000478,false,Rx,4,8,8B,13,0B,11,0B,13,0B,11,
50305926,000007E8,false,Rx,4,8,0C,EE,00,00,00,00,10,02,
50314699,0000046A,false,Rx,4,8,8B,0D,0B,12,0B,18,0B,1B,
50315598,0000047A,false,Rx,4,8,8B,19,0B,1A,0B,19,0B,19,
50316581,000007EA,false,Rx,4,8,00,00,00,00,00,00,10,0A,
50323498,0000046C,false,Rx,4,6,8B,13,0B,11,0B,1C,00,00,
50324296,0000047C,false,Rx,4,6,8B,1D,0B,1E,0B,1C,00,00,
50325320,000007EC,false,Rx,4,8,0D,0E,00,00,00,00,10,27,
50328057,0000046D,false,Rx,4,6,8B,0D,0B,0D,0B,17,00,00,
50328865,0000047D,false,Rx,4,6,8B,16,0B,16,0B,16,00,00,
50329869,000007ED,false,Rx,4,8,0D,08,00,00,00,00,10,22,
50333075,0000046E,false,Rx,4,6,8B,1B,0B,19,0B,27,00,00,
50333852,0000047E,false,Rx,4,6,8B,29,0B,27,0B,26,00,00,
50334896,000007EE,false,Rx,4,8,00,02,00,00,00,00,10,10,
51155072,00000200,false,Rx,4,3,02,00,00,00,00,00,00,00,
51251587,00000460,false,Rx,4,6,8B,10,0B,10,0B,19,00,00,
51252506,00000460,false,Rx,4,8,8B,0E,0B,0F,0B,17,0B,18,
51253821,00000460,false,Rx,4,8,8B,11,0B,11,0B,1C,0B,1C,
51254734,00000460,false,Rx,4,8,8B,08,0B,09,0B,12,0B,13,
51255636,00000470,false,Rx,4,8,8B,1A,0B,19,0B,19,0B,19,
51256549,00000470,false,Rx,4,8,8B,12,0B,13,0B,12,0B,12,
51257564,000007E0,false,Rx,4,8,00,00,00,00,00,00,10,00,
51258475,00000470,false,Rx,4,8,80,01,0B,19,0B,1B,0B,19,
51259458,000007E0,false,Rx,4,8,0D,0B,00,00,00,00,10,18,
51260541,000007E0,false,Rx,4,8,0D,09,00,00,00,00,10,16,
51261384,00000470,false,Rx,4,6,8B,19,0B,1A,0B,1A,00,00,
51268279,00000463,false,Rx,4,8,8B,13,0B,14,0B,1D,0B,20,
51269199,00000473,false,Rx,4,8,8B,1C,0B,1E,0B,1F,0B,1C,
51270194,000007E3,false,Rx,4,8,00,00,00,00,00,00,10,03,
51307869,00000468,false,Rx,4,8,8B,0A,0B,0B,0B,13,0B,12,
51308768,00000478,false,Rx,4,8,8B,13,0B,11,0B,13,0B,12,
51309753,000007E8,false,Rx,4,8,0C,EE,00,00,00,00,10,02,
51318515,0000046A,false,Rx,4,8,8B,0F,0B,0F,0B,19,0B,19,
51319424,0000047A,false,Rx,4,8,8B,1B,0B,17,0B,1A,0B,16,
51320407,000007EA,false,Rx,4,8,00,00,00,00,00,00,10,0A,
51327336,0000046C,false,Rx,4,6,8B,12,0B,11,0B,1D,00,00,
51328123,0000047C,false,Rx,4,6,8B,1E,0B,1E,0B,1C,00,00,
51329137,000007EC,false,Rx,4,8,0D,0E,00,00,00,00,10,27,
51331894,0000046D,false,Rx,4,6,8B,0E,0B,0D,0B,16,00,00,
51332690,0000047D,false,Rx,4,6,8B,16,0B,17,0B,16,00,00,
51333695,000007ED,false,Rx,4,8,0D,08,00,00,00,00,10,22,
51336891,0000046E,false,Rx,4,6,8B,1B,0B,19,0B,29,00,00,
51337677,0000047E,false,Rx,4,6,8B,29,0B,27,0B,26,00,00,
51338722,000007EE,false,Rx,4,8,00,02,00,00,00,00,10,10,
52155323,00000200,false,Rx,4,3,02,00,00,00,00,00,00,00,
52251869,00000460,false,Rx,4,6,8B,10,0B,10,0B,18,00,00,
52252767,00000460,false,Rx,4,8,8B,0F,0B,0F,0B,18,0B,17,
52254132,00000460,false,Rx,4,8,8B,0F,0B,11,0B,1C,0B,1C,
52255044,00000460,false,Rx,4,8,8B,08,0B,08,0B,12,0B,12,
52255957,00000470,false,Rx,4,8,8B,19,0B,19,0B,1B,0B,1C,
52256869,00000470,false,Rx,4,8,8B,12,0B,12,0B,12,0B,11,
52257883,000007E0,false,Rx,4,8,00,00,00,00,00,00,10,00,
52258797,00000470,false,Rx,4,8,80,01,0B,19,0B,1B,0B,19,
52259771,000007E0,false,Rx,4,8,0D,0B,00,00,00,00,10,18,
52260865,000007E0,false,Rx,4,8,0D,09,00,00,00,00,10,16,
52261696,00000470,false,Rx,4,6,8B,19,0B,19,0B,1A,00,00,
52268520,00000463,false,Rx,4,8,8B,12,0B,13,0B,1D,0B,1F,
52269459,00000473,false,Rx,4,8,8B,1C,0B,1F,0B,1D,0B,1F,
52270452,000007E3,false,Rx,4,8,00,00,00,00,00,00,10,03,
52308118,00000468,false,Rx,4,8,8B,0A,0B,0B,0B,13,0B,13,
52309029,00000478,false,Rx,4,8,8B,13,0B,11,0B,14,0B,12,
52310012,000007E8,false,Rx,4,8,0C,EE,00,00,00,00,10,02,
52318805,0000046A,false,Rx,4,8,8B,10,0B,0E,0B,1B,0B,18,
52319684,0000047A,false,Rx,4,8,8B,1B,0B,19,0B,19,0B,1A,
52320667,000007EA,false,Rx,4,8,00,00,00,00,00,00,10,0A,
52327575,0000046C,false,Rx,4,6,8B,13,0B,11,0B,1C,00,00,
52328372,0000047C,false,Rx,4,6,8B,1E,0B,1E,0B,1C,00,00,
52329395,000007EC,false,Rx,4,8,0D,0E,00,00,00,00,10,27,
52332164,0000046D,false,Rx,4,6,8B,0E,0B,0D,0B,17,00,00,
52332951,0000047D,false,Rx,4,6,8B,16,0B,17,0B,16,00,00,
52333954,000007ED,false,Rx,4,8,0D,08,00,00,00,00,10,22,
52337170,0000046E,false,Rx,4,6,8B,1B,0B,19,0B,28,00,00,
52337956,0000047E,false,Rx,4,6,8B,2A,0B,27,0B,25,00,00,
52339002,000007EE,false,Rx,4,8,00,02,00,00,00,00,10,10,
53160535,00000200,false,Rx,4,3,02,00,00,00,00,00,00,00,
53257070,00000460,false,Rx,4,6,8B,10,0B,10,0B,19,00,00,
53257988,00000460,false,Rx,4,8,8B,0E,0B,10,0B,17,0B,18,
53259343,00000460,false,Rx,4,8,8B,0F,0B,10,0B,1C,0B,1C,
53260255,00000460,false,Rx,4,8,8B,08,0B,09,0B,13,0B,13,
53261166,00000470,false,Rx,4,8,8B,1A,0B,19,0B,19,0B,1C,
53262080,00000470,false,Rx,4,8,8B,12,0B,12,0B,12,0B,12,
53263094,000007E0,false,Rx,4,8,00,00,00,00,00,00,10,00,
53264018,00000470,false,Rx,4,8,80,02,0B,19,0B,1B,0B,19,
53265001,000007E0,false,Rx,4,8,0D,0B,00,00,00,00,10,18,
53266095,000007E0,false,Rx,4,8,0D,09,00,00,00,00,10,16,
53266937,00000470,false,Rx,4,6,8B,1A,0B,18,0B,1B,00,00,
53273743,00000463,false,Rx,4,8,8B,12,0B,13,0B,1E,0B,1E,
53274671,00000473,false,Rx,4,8,8B,1C,0B,1F,0B,1E,0B,1D,
53275654,000007E3,false,Rx,4,8,00,00,00,00,00,00,10,03,
53313340,00000468,false,Rx,4,8,8B,0A,0B,0B,0B,13,0B,12,
53314230,00000478,false,Rx,4,8,8B,13,0B,11,0B,13,0B,13,
53315214,000007E8,false,Rx,4,8,0C,EE,00,00,00,00,10,02,
53323996,0000046A,false,Rx,4,8,8B,10,0B,0F,0B,1A,0B,1A,
53324895,0000047A,false,Rx,4,8,8B,19,0B,1A,0B,17,0B,1B,
53325881,000007EA,false,Rx,4,8,00,00,00,00,00,00,10,0A,
53332798,0000046C,false,Rx,4,6,8B,12,0B,11,0B,1D,00,00,
53333594,0000047C,false,Rx,4,6,8B,1E,0B,1E,0B,1C,00,00,
53334598,000007EC,false,Rx,4,8,0D,0E,00,00,00,00,10,27,
53337366,0000046D,false,Rx,4,6,8B,0E,0B,0D,0B,17,00,00,
53338163,0000047D,false,Rx,4,6,8B,16,0B,17,0B,16,00,00,
53339157,000007ED,false,Rx,4,8,0D,08,00,00,00,00,10,22,
53342352,0000046E,false,Rx,4,6,8B,1B,0B,19,0B,28,00,00,
53343139,0000047E,false,Rx,4,6,8B,29,0B,27,0B,26,00,00,
53344184,000007EE,false,Rx,4,8,00,02,00,00,00,00,10,10,
54160856,00000200,false,Rx,4,3,02,00,00,00,00,00,00,00,
54257358,00000460,false,Rx,4,6,8B,10,0B,0F,0B,18,00,00,
54258287,00000460,false,Rx,4,8,8B,0D,0B,0F,0B,18,0B,19,
54259621,00000460,false,Rx,4,8,8B,11,0B,10,0B,1A,0B,1B,
54260544,00000460,false,Rx,4,8,8B,08,0B,08,0B,12,0B,12,
54261435,00000470,false,Rx,4,8,8B,1B,0B,1B,0B,19,0B,1A,
54262358,00000470,false,Rx,4,8,8B,12,0B,12,0B,13,0B,11,
54263362,000007E0,false,Rx,4,8,00,00,00,00,00,00,10,00,
54264276,00000470,false,Rx,4,8,80,01,0B,19,0B,1B,0B,18,
54265259,000007E0,false,Rx,4,8,0D,0B,00,00,00,00,10,18,
54266342,000007E0,false,Rx,4,8,0D,08,00,00,00,00,10,15,
54267184,00000470,false,Rx,4,6,8B,1A,0B,19,0B,1A,00,00,
54274049,00000463,false,Rx,4,8,8B,13,0B,13,0B,1E,0B,1F,
54274958,00000473,false,Rx,4,8,8B,1D,0B,1E,0B,1E,0B,1D,
54275943,000007E3,false,Rx,4,8,00,00,00,00,00,00,10,03,
54313649,00000468,false,Rx,4,8,8B,0A,0B,0B,0B,13,0B,12,
54314558,00000478,false,Rx,4,8,8B,13,0B,10,0B,13,0B,12,
54315532,000007E8,false,Rx,4,8,0C,EE,00,00,00,00,10,02,
54324316,0000046A,false,Rx,4,8,8B,10,0B,0E,0B,1B,0B,1A,
54325215,0000047A,false,Rx,4,8,8B,1A,0B,1B,0B,17,0B,1B,
54326198,000007EA,false,Rx,4,8,00,00,00,00,00,00,10,0A,
54333107,0000046C,false,Rx,4,6,8B,13,0B,11,0B,1D,00,00,
54333895,0000047C,false,Rx,4,6,8B,1D,0B,1E,0B,1C,00,00,
54334920,000007EC,false,Rx,4,8,0D,0E,00,00,00,00,10,27,
54337675,0000046D,false,Rx,4,6,8B,0D,0B,0D,0B,17,00,00,
54338462,0000047D,false,Rx,4,6,8B,17,0B,17,0B,16,00,00,
54339475,000007ED,false,Rx,4,8,0D,08,00,00,00,00,10,22,
54342661,0000046E,false,Rx,4,6,8B,1B,0B,19,0B,28,00,00,
54343449,0000047E,false,Rx,4,6,8B,29,0B,27,0B,26,00,00,
54344492,000007EE,false,Rx,4,8,00,02,00,00,00,00,10,10,
55166233,00000200,false,Rx,4,3,02,00,00,00,00,00,00,00,
55262776,00000460,false,Rx,4,6,8B,10,0B,0F,0B,19,00,00,
55263683,00000460,false,Rx,4,8,8B,0E,0B,0F,0B,17,0B,17,
55264998,00000460,false,Rx,4,8,8B,11,0B,0E,0B,1B,0B,1D,
55265901,00000460,false,Rx,4,8,8B,08,0B,09,0B,13,0B,12,
55266832,00000470,false,Rx,4,8,8B,1B,0B,1A,0B,19,0B,1C,
55267745,00000470,false,Rx,4,8,8B,12,0B,12,0B,12,0B,12,
55268749,000007E0,false,Rx,4,8,00,00,00,00,00,00,10,00,
55269672,00000470,false,Rx,4,8,80,02,0B,1A,0B,1B,0B,19,
55270656,000007E0,false,Rx,4,8,0D,0B,00,00,00,00,10,18,
55271750,000007E0,false,Rx,4,8,0D,09,00,00,00,00,10,16,
55272591,00000470,false,Rx,4,6,8B,19,0B,19,0B,19,00,00,
55279456,00000463,false,Rx,4,8,8B,11,0B,14,0B,1C,0B,1F,
55280366,00000473,false,Rx,4,8,8B,1E,0B,1D,0B,1F,0B,1D,
55281361,000007E3,false,Rx,4,8,00,00,00,00,00,00,10,03,
55319037,00000468,false,Rx,4,8,8B,0A,0B,0B,0B,13,0B,13,
55319936,00000478,false,Rx,4,8,8B,13,0B,11,0B,14,0B,12,
55320920,000007E8,false,Rx,4,8,0C,EE,00,00,00,00,10,02,
55329693,0000046A,false,Rx,4,8,8B,10,0B,0E,0B,1B,0B,1B,
55330591,0000047A,false,Rx,4,8,8B,18,0B,1A,0B,19,0B,17,
55331575,000007EA,false,Rx,4,8,00,00,00,00,00,00,10,0A,
55338514,0000046C,false,Rx,4,6,8B,12,0B,11,0B,1C,00,00,
55339301,0000047C,false,Rx,4,6,8B,1D,0B,1D,0B,1C,00,00,
55340295,000007EC,false,Rx,4,8,0D,0E,00,00,00,00,10,27,
55343062,0000046D,false,Rx,4,6,8B,0E,0B,0D,0B,16,00,00,
55343839,0000047D,false,Rx,4,6,8B,17,0B,18,0B,16,00,00,
55344854,000007ED,false,Rx,4,8,0D,08,00,00,00,00,10,22,
55348081,0000046E,false,Rx,4,6,8B,1C,0B,19,0B,28,00,00,
55348878,0000047E,false,Rx,4,6,8B,2A,0B,27,0B,26,00,00,
55349901,000007EE,false,Rx,4,8,00,01,00,00,00,00,10,0F,
56167123,00000200,false,Rx,4,3,02,00,00,00,00,00,00,00,
56263656,00000460,false,Rx,4,6,8B,10,0B,10,0B,18,00,00,
56264584,00000460,false,Rx,4,8,8B,0E,0B,0E,0B,17,0B,18,
56265900,00000460,false,Rx,4,8,8B,11,0B,12,0B,1D,0B,1C,
56266792,00000460,false,Rx,4,8,8B,09,0B,09,0B,13,0B,13,
56267704,00000470,false,Rx,4,8,8B,19,0B,18,0B,19,0B,1C,
56268618,00000470,false,Rx,4,8,8B,11,0B,13,0B,12,0B,12,
56269633,000007E0,false,Rx,4,8,00,00,00,00,00,00,10,00,
56270544,00000470,false,Rx,4,8,80,01,0B,19,0B,1B,0B,19,
56271528,000007E0,false,Rx,4,8,0D,0B,00,00,00,00,10,18,
56280352,00000463,false,Rx,4,8,8B,11,0B,14,0B,1C,0B,1F,
56281261,00000473,false,Rx,4,8,8B,1C,0B,1F,0B,1D,0B,1D,
56282254,000007E3,false,Rx,4,8,00,00,00,00,00,00,10,03,
56286307,000007E0,false,Rx,4,8,0D,09,00,00,00,00,10,16,
56287085,00000470,false,Rx,4,6,8B,1A,0B,19,0B,1A,00,00,
56319927,00000468,false,Rx,4,8,8B,0A,0B,0B,0B,13,0B,12,
56320836,00000478,false,Rx,4,8,8B,12,0B,11,0B,13,0B,12,
56321821,000007E8,false,Rx,4,8,0C,EE,00,00,00,00,10,02,
56330572,0000046A,false,Rx,4,8,8B,0F,0B,12,0B,19,0B,18,
56331471,0000047A,false,Rx,4,8,8B,19,0B,19,0B,17,0B,1A,
56332455,000007EA,false,Rx,4,8,00,00,00,00,00,00,10,0A,
56339392,0000046C,false,Rx,4,6,8B,13,0B,12,0B,1C,00,00,
56340179,0000047C,false,Rx,4,6,8B,1E,0B,1E,0B,1C,00,00,
56341193,000007EC,false,Rx,4,8,0D,0E,00,00,00,00,10,27,
56343960,0000046D,false,Rx,4,6,8B,0E,0B,0D,0B,17,00,00,
56344748,0000047D,false,Rx,4,6,8B,17,0B,17,0B,16,00,00,
56345751,000007ED,false,Rx,4,8,0D,08,00,00,00,00,10,22,
56348967,0000046E,false,Rx,4,6,8B,1B,0B,19,0B,27,00,00,
56349765,0000047E,false,Rx,4,6,8B,2A,0B,26,0B,26,00,00,
56350799,000007EE,false,Rx,4,8,00,02,00,00,00,00,10,10,
57167817,00000200,false,Rx,4,3,02,00,00,00,00,00,00,00,
57264339,00000460,false,Rx,4,6,8B,11,0B,10,0B,19,00,00,
57265116,00000470,false,Rx,4,6,8B,1A,0B,19,0B,1A,00,00,
57270595,00000460,false,Rx,4,8,8B,0E,0B,0F,0B,17,0B,17,
57271493,00000460,false,Rx,4,8,8B,08,0B,09,0B,13,0B,12,
57272426,00000470,false,Rx,4,8,80,01,0B,19,0B,1C,0B,19,
57273339,00000470,false,Rx,4,8,8B,12,0B,13,0B,12,0B,12,
57274987,00000460,false,Rx,4,8,8B,11,0B,11,0B,1D,0B,1C,
57276273,00000470,false,Rx,4,8,8B,1A,0B,19,0B,18,0B,19,
57277996,000007E0,false,Rx,4,8,0D,08,00,00,00,00,10,15,
57279006,000007E0,false,Rx,4,8,00,00,00,00,00,00,10,00,
57281009,00000463,false,Rx,4,8,8B,11,0B,14,0B,1D,0B,1E,
57281922,00000473,false,Rx,4,8,8B,1C,0B,1F,0B,1D,0B,1E,
57282914,000007E3,false,Rx,4,8,00,00,00,00,00,00,10,03,
57293314,000007E0,false,Rx,4,8,0D,0B,00,00,00,00,10,18,
57320618,00000468,false,Rx,4,8,8B,0A,0B,0B,0B,13,0B,12,
57321507,00000478,false,Rx,4,8,8B,13,0B,11,0B,13,0B,12,
57322491,000007E8,false,Rx,4,8,0C,EE,00,00,00,00,10,02,
57331264,0000046A,false,Rx,4,8,8B,11,0B,0F,0B,17,0B,1B,
57332173,0000047A,false,Rx,4,8,8B,1A,0B,18,0B,19,0B,1B,
57333157,000007EA,false,Rx,4,8,00,00,00,00,00,00,10,0A,
57340075,0000046C,false,Rx,4,6,8B,13,0B,11,0B,1D,00,00,
57340862,0000047C,false,Rx,4,6,8B,1D,0B,1E,0B,1C,00,00,
57341886,000007EC,false,Rx,4,8,0D,0E,00,00,00,00,10,27,
57344652,0000046D,false,Rx,4,6,8B,0D,0B,0D,0B,17,00,00,
57345439,0000047D,false,Rx,4,6,8B,17,0B,17,0B,15,00,00,
57346463,000007ED,false,Rx,4,8,0D,08,00,00,00,00,10,22,
57349628,0000046E,false,Rx,4,6,8B,1B,0B,19,0B,28,00,00,
57350416,0000047E,false,Rx,4,6,8B,29,0B,27,0B,26,00,00,
57351460,000007EE,false,Rx,4,8,00,02,00,00,00,00,10,10,
58170988,00000200,false,Rx,4,3,02,00,00,00,00,00,00,00,
58267501,00000460,false,Rx,4,6,8B,11,0B,10,0B,18,00,00,
58268429,00000460,false,Rx,4,8,8B,0E,0B,0F,0B,18,0B,18,
58269342,00000460,false,Rx,4,8,8B,08,0B,09,0B,13,0B,12,
58270244,00000470,false,Rx,4,8,8B,12,0B,12,0B,13,0B,12,
58271993,00000460,false,Rx,4,8,8B,0F,0B,0F,0B,1A,0B,1A,
58273291,00000470,false,Rx,4,8,8B,18,0B,18,0B,18,0B,1A,
58279187,000007E0,false,Rx,4,8,00,00,00,00,00,00,10,00,
58280189,000007E0,false,Rx,4,8,00,00,00,00,00,00,10,00,
58281193,00000470,false,Rx,4,8,80,02,0B,19,0B,1C,0B,19,
58282164,000007E0,false,Rx,4,8,0D,09,00,00,00,00,10,16,
58283006,00000470,false,Rx,4,6,8B,1A,0B,19,0B,1A,00,00,
58283989,000007E0,false,Rx,4,8,0D,0B,00,00,00,00,10,18,
58284912,00000463,false,Rx,4,8,8B,12,0B,12,0B,1F,0B,1C,
58285843,00000473,false,Rx,4,8,8B,1F,0B,1E,0B,1F,0B,1C,
58286837,000007E3,false,Rx,4,8,00,00,00,00,00,00,10,03,
58323806,00000468,false,Rx,4,8,8B,0A,0B,0C,0B,12,0B,12,
58324705,00000478,false,Rx,4,8,8B,13,0B,11,0B,13,0B,13,
